! Created Mon Feb 12 23:48:36 2024
# hz S ma R 50
! 2 Port Network Data from SP1.SP block
! freq  magS11  angS11  magS21  angS21  magS12  angS12  magS22  angS22  
!     
         500000000       0.980843965        -75.6668583        0.138156296         37.2585366        0.138156296         37.2585366        0.987348471        -28.9051422
         550000000       0.978663241        -81.0316347        0.145292555         33.2096739        0.145292555         33.2096739        0.986133887        -31.6063438
         600000000       0.976659773        -86.0052294        0.151390036         29.3802297        0.151390036         29.3802297        0.985016362        -34.2673649
         650000000       0.974841721        -90.6129706        0.156551938         25.7572246        0.156551938         25.7572246        0.984000204        -36.8876517
         700000000       0.973208967        -94.8812711        0.160877776         22.3271996        0.160877776         22.3271996        0.983085203        -39.4666556
         750000000       0.971755701        -98.8364994         0.16446071         19.0767884         0.16446071         19.0767884        0.982268066        -42.0038278
         800000000       0.970472461        -102.504214        0.167386188         15.9930954        0.167386188         15.9930954        0.981543537        -44.4986278
         850000000       0.969347661        -105.908676        0.169731477         13.0639246        0.169731477         13.0639246        0.980905232        -46.9505393
         900000000       0.968368694        -109.072575        0.171565765          10.277902        0.171565765          10.277902        0.980346242        -49.3590876
         950000000        0.96752269        -112.016897        0.172950593         7.62452364        0.172950593         7.62452364        0.979859538        -51.7238562
             1e+09       0.966797028        -114.760903        0.173940463          5.0941543        0.173940463          5.0941543        0.979438252        -54.0444999
          1.05e+09       0.966179648        -117.322163         0.17458352         2.67799514         0.17458352         2.67799514        0.979075836        -56.3207551
           1.1e+09       0.965659244        -119.716645        0.174922228        0.368033151        0.174922228        0.368033151        0.978766165        -58.5524468
          1.15e+09       0.965225348        -121.958814        0.174994029        -1.84301846        0.174994029        -1.84301846        0.978503579        -60.7394921
           1.2e+09        0.96486837        -124.061754        0.174831935        -3.96178329        0.174831935        -3.96178329        0.978282902        -62.8819013
          1.25e+09       0.964579583        -126.037283        0.174465076        -5.99428416        0.174465076        -5.99428416         0.97809943        -64.9797764
           1.3e+09        0.96435109         -127.89607        0.173919176        -7.94600284        0.173919176        -7.94600284        0.977948911        -67.0333085
          1.35e+09       0.964175777        -129.647749        0.173216973        -9.82193558        0.173216973        -9.82193558        0.977827521        -69.0427728
           1.4e+09       0.964047252         -131.30102        0.172378592         -11.626644        0.172378592         -11.626644        0.977731824        -71.0085238
          1.45e+09       0.963959792        -132.863743        0.171421863        -13.3643012        0.171421863        -13.3643012        0.977658747        -72.9309891
           1.5e+09       0.963908278        -134.343027          0.1703626        -15.0387327          0.1703626        -15.0387327        0.977605543        -74.8106625
          1.55e+09       0.963888144        -135.745308        0.169214842        -16.6534536        0.169214842        -16.6534536        0.977569761        -76.6480984
           1.6e+09       0.963895319        -137.076417        0.167991065         -18.211701        0.167991065         -18.211701        0.977549216        -78.4439039
          1.65e+09        0.96392618        -138.341646        0.166702361        -19.7164625        0.166702361        -19.7164625        0.977541964        -80.1987333
           1.7e+09       0.963977504        -139.545804        0.165358603        -21.1705024        0.165358603        -21.1705024        0.977546274        -81.9132813
          1.75e+09        0.96404643        -140.693264        0.163968575        -22.5763832        0.163968575        -22.5763832        0.977560608        -83.5882771
           1.8e+09       0.964130418        -141.788011        0.162540101        -23.9364861        0.162540101        -23.9364861          0.9775836        -85.2244785
          1.85e+09       0.964227214         -142.83368        0.161080148        -25.2530281        0.161080148        -25.2530281        0.977614038        -86.8226668
           1.9e+09       0.964334825        -143.833594        0.159594917        -26.5280776        0.159594917        -26.5280776        0.977650845        -88.3836417
          1.95e+09       0.964451485        -144.790791         0.15808993        -27.7635676         0.15808993        -27.7635676        0.977693068         -89.908217
             2e+09       0.964575633        -145.708056        0.156570099        -28.9613084        0.156570099        -28.9613084        0.977739863        -91.3972161
          2.05e+09       0.964705891        -146.587944        0.155039794        -30.1229977        0.155039794        -30.1229977        0.977790482        -92.8514684
           2.1e+09       0.964841044        -147.432803        0.153502893        -31.2502302        0.153502893        -31.2502302        0.977844264        -94.2718059
          2.15e+09       0.964980021        -148.244794        0.151962842        -32.3445066        0.151962842        -32.3445066        0.977900625        -95.6590603
           2.2e+09       0.965121882        -149.025907        0.150422693        -33.4072403        0.150422693        -33.4072403         0.97795905          -97.01406
          2.25e+09         0.9652658        -149.777979        0.148885146        -34.4397647        0.148885146        -34.4397647        0.978019085        -98.3376278
           2.3e+09       0.965411051        -150.502707        0.147352586        -35.4433393        0.147352586        -35.4433393        0.978080332         -99.630579
          2.35e+09       0.965557003        -151.201663        0.145827115         -36.419155        0.145827115         -36.419155        0.978142437         -100.89372
           2.4e+09       0.965703103        -151.876299        0.144310581        -37.3683389        0.144310581        -37.3683389        0.978205095        -102.127844
          2.45e+09       0.965848872        -152.527965        0.142804603        -38.2919592        0.142804603        -38.2919592        0.978268035        -103.333735
           2.5e+09       0.965993893        -153.157914        0.141310593        -39.1910286        0.141310593        -39.1910286        0.978331022        -104.512162
          2.55e+09       0.966137807        -153.767311        0.139829781        -40.0665088        0.139829781        -40.0665088        0.978393851        -105.663879
           2.6e+09       0.966280304        -154.357239        0.138363228        -40.9193131        0.138363228        -40.9193131        0.978456344        -106.789625
          2.65e+09        0.96642112         -154.92871         0.13691185        -41.7503098         0.13691185        -41.7503098        0.978518347        -107.890125
           2.7e+09        0.96656003        -155.482666        0.135476426        -42.5603253        0.135476426        -42.5603253        0.978579727        -108.966085
          2.75e+09       0.966696844        -156.019987        0.134057616        -43.3501461        0.134057616        -43.3501461        0.978640371        -110.018195
           2.8e+09       0.966831404        -156.541497        0.132655974        -44.1205217        0.132655974        -44.1205217        0.978700181        -111.047131
          2.85e+09       0.966963576        -157.047967        0.131271955        -44.8721663        0.131271955        -44.8721663        0.978759074        -112.053548
           2.9e+09       0.967093254        -157.540117        0.129905928        -45.6057615        0.129905928        -45.6057615        0.978816983        -113.038087
          2.95e+09       0.967220351        -158.018625        0.128558188        -46.3219574        0.128558188        -46.3219574        0.978873849         -114.00137
             3e+09       0.967344799        -158.484127        0.127228956        -47.0213751        0.127228956        -47.0213751        0.978929624        -114.944001
          3.05e+09       0.967466548         -158.93722        0.125918394        -47.7046078        0.125918394        -47.7046078        0.978984272        -115.866572
           3.1e+09       0.967585561        -159.378465        0.124626609        -48.3722224        0.124626609        -48.3722224        0.979037761        -116.769652
          3.15e+09       0.967701813        -159.808391        0.123353658        -49.0247612        0.123353658        -49.0247612        0.979090069        -117.653798
           3.2e+09       0.967815292        -160.227496        0.122099555        -49.6627428        0.122099555        -49.6627428        0.979141178        -118.519549
          3.25e+09       0.967925993         -160.63625        0.120864275        -50.2866638        0.120864275        -50.2866638        0.979191077        -119.367428
           3.3e+09       0.968033922        -161.035095         0.11964776        -50.8969995         0.11964776        -50.8969995         0.97923976        -120.197944
          3.35e+09       0.968139091        -161.424452        0.118449919        -51.4942051        0.118449919        -51.4942051        0.979287223        -121.011588
           3.4e+09       0.968241518        -161.804714        0.117270638        -52.0787171        0.117270638        -52.0787171        0.979333467        -121.808838
          3.45e+09       0.968341227        -162.176257        0.116109777        -52.6509537        0.116109777        -52.6509537        0.979378497        -122.590157
           3.5e+09       0.968438245        -162.539435        0.114967176         -53.211316        0.114967176         -53.211316        0.979422319        -123.355993
          3.55e+09       0.968532605        -162.894583        0.113842658        -53.7601888        0.113842658        -53.7601888        0.979464942        -124.106781
           3.6e+09       0.968624342         -163.24202        0.112736031        -54.2979414        0.112736031        -54.2979414        0.979506378        -124.842942
          3.65e+09       0.968713494        -163.582047        0.111647089        -54.8249282        0.111647089        -54.8249282         0.97954664        -125.564883
           3.7e+09         0.9688001        -163.914952        0.110575613        -55.3414898        0.110575613        -55.3414898         0.97958574        -126.273001
          3.75e+09       0.968884203        -164.241005        0.109521378        -55.8479531        0.109521378        -55.8479531        0.979623696        -126.967678
           3.8e+09       0.968965847        -164.560467        0.108484149        -56.3446324        0.108484149        -56.3446324        0.979660523        -127.649285
          3.85e+09       0.969045074        -164.873583        0.107463683        -56.8318298        0.107463683        -56.8318298        0.979696239         -128.31818
           3.9e+09       0.969121931        -165.180587        0.106459736        -57.3098358        0.106459736        -57.3098358        0.979730861        -128.974712
          3.95e+09       0.969196463        -165.481702        0.105472056        -57.7789296        0.105472056        -57.7789296        0.979764409        -129.619216
             4e+09       0.969268716        -165.777142        0.104500388        -58.2393802        0.104500388        -58.2393802        0.979796899         -130.25202
          4.05e+09       0.969338737        -166.067108        0.103544476        -58.6914463        0.103544476        -58.6914463        0.979828353        -130.873439
           4.1e+09        0.96940657        -166.351794        0.102604063        -59.1353768        0.102604063        -59.1353768        0.979858788        -131.483779
          4.15e+09       0.969472262        -166.631385        0.101678891        -59.5714117        0.101678891        -59.5714117        0.979888225        -132.083336
           4.2e+09       0.969535859        -166.906056        0.100768699         -59.999782        0.100768699         -59.999782        0.979916682        -132.672398
          4.25e+09       0.969597405        -167.175977       0.0998732309        -60.4207102       0.0998732309        -60.4207102        0.979944179        -133.251241
           4.3e+09       0.969656946        -167.441307       0.0989922284        -60.8344109       0.0989922284        -60.8344109        0.979970735        -133.820136
          4.35e+09       0.969714525        -167.702202       0.0981254358         -61.241091       0.0981254358         -61.241091        0.979996368        -134.379342
           4.4e+09       0.969770185        -167.958808       0.0972725989        -61.6409499       0.0972725989        -61.6409499        0.980021099        -134.929114
          4.45e+09       0.969823968        -168.211267       0.0964334658        -62.0341799       0.0964334658        -62.0341799        0.980044944        -135.469695
           4.5e+09       0.969875918        -168.459714        0.095607787        -62.4209668        0.095607787        -62.4209668        0.980067924        -136.001323
          4.55e+09       0.969926074        -168.704277       0.0947953155        -62.8014896       0.0947953155        -62.8014896        0.980090055        -136.524227
           4.6e+09       0.969974478        -168.945082       0.0939958073        -63.1759212       0.0939958073        -63.1759212        0.980111356        -137.038631
          4.65e+09       0.970021167        -169.182247       0.0932090216        -63.5444287       0.0932090216        -63.5444287        0.980131843        -137.544751
           4.7e+09       0.970066181        -169.415887       0.0924347208        -63.9071734       0.0924347208        -63.9071734        0.980151535        -138.042795
          4.75e+09       0.970109557        -169.646111       0.0916726705        -64.2643109       0.0916726705        -64.2643109        0.980170447        -138.532966
           4.8e+09       0.970151332        -169.873025       0.0909226402         -64.615992       0.0909226402         -64.615992        0.980188596        -139.015463
          4.85e+09       0.970191542         -170.09673       0.0901844028         -64.962362       0.0901844028         -64.962362        0.980205998        -139.490474
           4.9e+09       0.970230222        -170.317324       0.0894577347        -65.3035617       0.0894577347        -65.3035617        0.980222669        -139.958186
          4.95e+09       0.970267404        -170.534899       0.0887424165        -65.6397271       0.0887424165        -65.6397271        0.980238624        -140.418778
             5e+09       0.970303124        -170.749546       0.0880382321        -65.9709898       0.0880382321        -65.9709898        0.980253878        -140.872423
          5.05e+09       0.970337412        -170.961352       0.0873449696         -66.297477       0.0873449696         -66.297477        0.980268445        -141.319291
           5.1e+09       0.970370301          -171.1704       0.0866624207        -66.6193121       0.0866624207        -66.6193121         0.98028234        -141.759547
          5.15e+09        0.97040182         -171.37677       0.0859903811        -66.9366141       0.0859903811        -66.9366141        0.980295577        -142.193348
           5.2e+09          0.970432        -171.580539       0.0853286503        -67.2494986       0.0853286503        -67.2494986        0.980308168        -142.620849
          5.25e+09       0.970460869        -171.781783       0.0846770315        -67.5580773       0.0846770315        -67.5580773        0.980320127          -143.0422
           5.3e+09       0.970488455        -171.980573       0.0840353319        -67.8624585       0.0840353319        -67.8624585        0.980331467        -143.457547
          5.35e+09       0.970514785        -172.176979       0.0834033623        -68.1627471       0.0834033623        -68.1627471          0.9803422        -143.867031
           5.4e+09       0.970539887        -172.371067       0.0827809376        -68.4590446       0.0827809376        -68.4590446        0.980352338        -144.270789
          5.45e+09       0.970563785        -172.562902       0.0821678759        -68.7514497       0.0821678759        -68.7514497        0.980361892        -144.668955
           5.5e+09       0.970586505        -172.752546       0.0815639995        -69.0400577       0.0815639995        -69.0400577        0.980370875        -145.061657
          5.55e+09        0.97060807         -172.94006        0.080969134        -69.3249614        0.080969134        -69.3249614        0.980379297        -145.449022
           5.6e+09       0.970628505        -173.125501       0.0803831088        -69.6062504       0.0803831088        -69.6062504        0.980387169        -145.831172
          5.65e+09       0.970647831        -173.308926       0.0798057567        -69.8840119       0.0798057567        -69.8840119        0.980394502        -146.208226
           5.7e+09       0.970666072         -173.49039       0.0792369141        -70.1583304       0.0792369141        -70.1583304        0.980401304        -146.580298
          5.75e+09       0.970683248        -173.669944       0.0786764208         -70.429288       0.0786764208         -70.429288        0.980407587        -146.947502
           5.8e+09        0.97069938         -173.84764       0.0781241199        -70.6969641       0.0781241199        -70.6969641         0.98041336        -147.309947
          5.85e+09       0.970714489        -174.023527        0.077579858        -70.9614361        0.077579858        -70.9614361        0.980418631        -147.667737
           5.9e+09       0.970728593        -174.197652       0.0770434848        -71.2227791       0.0770434848        -71.2227791        0.980423411        -148.020978
          5.95e+09       0.970741713        -174.370061       0.0765148532        -71.4810658       0.0765148532        -71.4810658        0.980427707        -148.369769
             6e+09       0.970753866          -174.5408       0.0759938196        -71.7363671       0.0759938196        -71.7363671        0.980431528        -148.714207
          6.05e+09        0.97076507         -174.70991       0.0754802429        -71.9887519       0.0754802429        -71.9887519        0.980434882        -149.054389
           6.1e+09       0.970775342        -174.877435       0.0749739856        -72.2382868       0.0749739856        -72.2382868        0.980437777        -149.390405
          6.15e+09       0.970784699        -175.043414       0.0744749128         -72.485037       0.0744749128         -72.485037        0.980440221        -149.722346
           6.2e+09       0.970793158        -175.207888       0.0739828926        -72.7290655       0.0739828926        -72.7290655        0.980442221        -150.050301
          6.25e+09       0.970800734        -175.370893       0.0734977961        -72.9704337       0.0734977961        -72.9704337        0.980443785        -150.374353
