! Created with skrf 1.8.0 (http://scikit-rf.org).
# Hz S RI R 50.0 
!freq ReS11 ImS11 ReS21 ImS21 ReS12 ImS12 ReS22 ImS22
500000000.0 -0.5980156105040559 -0.718204591731044 -5.862135589843889 16.951148080926288 0.020582882203370845 0.007349163635563413 -0.1104571022668186 -0.27938687326661527
550000000.0 -0.6471265468136312 -0.6719634555316466 -4.707860638987724 15.861007787266816 0.0211877550507251 0.006546470263160685 -0.12664172025955983 -0.27086468495136873
600000000.0 -0.6865820761198641 -0.6296321844749873 -3.781821909018959 14.863249939249213 0.02166328444232583 0.00579576485053889 -0.13994986411189136 -0.26351832169766076
650000000.0 -0.7186491309390239 -0.5911045520236624 -3.030525762948984 13.955378911372094 0.02203909307874606 0.005095741840697944 -0.15107870500258105 -0.25731266465565816
700000000.0 -0.745000333011876 -0.5561106706084031 -2.414501202970747 13.131037237593215 0.02233704903813931 0.004442958028383382 -0.16054230237325418 -0.2521622343118618
750000000.0 -0.7668800681317508 -0.5243221339558415 -1.9043812820928498 12.382486470771395 0.022573433387793614 0.0038332048257689088 -0.16872275358596636 -0.24796357503659922
800000000.0 -0.7852233892236586 -0.49540426040724933 -1.4780975516952646 11.701839870541184 0.022760492082980838 0.0032621900696784764 -0.17590681585166967 -0.24461134776082843
850000000.0 -0.8007404028502938 -0.46904062049154605 -1.1188889412953862 11.081641128296363 0.022907537334775248 0.002725858074508358 -0.18231189793758196 -0.2420058866689644
900000000.0 -0.8139761793821898 -0.44494317568428465 -0.8138881672765415 10.51510358331541 0.023021729497108845 0.0022205218804965962 -0.1881045138172906 -0.24005632430434098
950000000.0 -0.8253535063417956 -0.42285508966950036 -0.55311296392561 9.996176544509806 0.023108635011113023 0.0017428998651970071 -0.1934134525023073 -0.2386814598132076
1000000000.0 -0.8352036351203096 -0.4025499533072656 -0.32874061583855685 9.5195269929106 0.023172627629929103 0.0012901055502724309 -0.19833925019391285 -0.23780952253069948
1050000000.0 -0.843788594042064 -0.383829396124351 -0.13458148595272723 9.080483214290881 0.023217179560496834 0.000859616353893589 -0.20296106514273823 -0.23737743848949222
1100000000.0 -0.8513175380417608 -0.3665201107408159 0.034306747684221595 8.67496458053613 0.02324507476574754 0.0004492346860937416 -0.20734171599353324 -0.23732991596022096
1150000000.0 -0.8579588468479618 -0.350470808977143 0.1819045392367551 8.299409719751951 0.023258566772000992 5.7048158055119096e-05 -0.2115314108303591 -0.2376185097833779
1200000000.0 -0.8638491646612811 -0.3355493566835488 0.3114437555508114 7.950708904157835 0.02325949655337295 -0.00031860787009297303 -0.21557053432597925 -0.23820074057386104
1250000000.0 -0.8691002188794926 -0.32164019031903845 0.425568552183202 7.62614308674772 0.02324938142567617 -0.0006791840581638811 -0.21949175093279305 -0.23903930052746447
1300000000.0 -0.8738040108374332 -0.30864204362536135 0.5264578363403885 7.323330255532916 0.023229482689862996 -0.0010259468015031512 -0.22332160672614398 -0.24010135455847625
1350000000.0 -0.8780368021082193 -0.29646597567206556 0.6159193105101337 7.0401788995263725 0.023200857553687275 -0.0013600040071455749 -0.22708176033262298 -0.24135793408170997
1400000000.0 -0.8818622016412256 -0.2850336747418515 0.6954622999264128 6.774847984054591 0.023164399316526203 -0.0016823272638169995 -0.23078993695164934 -0.24278341557713867
1450000000.0 -0.8853335757553668 -0.27427600645095107 0.7663546025196826 6.525712689652548 0.02312086871558831 -0.001993770818350332 -0.23446067383720903 -0.24435507420467661
1500000000.0 -0.8884959438886589 -0.2641317739236314 0.8296672051096294 6.291335155210785 0.023070918560089228 -0.0022950877786368927 -0.2381059074001381 -0.24605270256039768
1550000000.0 -0.8913874806617723 -0.2545466599038393 0.8863097104845579 6.070439514741629 0.023015113227290405 -0.00258694393629623 -0.2417354390507519 -0.24785828530135168
1600000000.0 -0.8940407142222353 -0.24547232384841722 0.9370585982075532 5.861890591722687 0.022953944194989778 -0.0028699295610164002 -0.24535730748068119 -0.24975572134060298
1650000000.0 -0.8964834885482365 -0.23686563049523102 0.9825799160983912 5.664675696351451 0.022887842494131186 -0.0031445694735125133 -0.24897808821893452 -0.25173058637667334
1700000000.0 -0.898739741018757 -0.2286879897304402 1.023447613028562 5.47788904963822 0.022817188751492246 -0.0034113316605836833 -0.2526031362552949 -0.2537699295478498
1750000000.0 -0.9008301344339112 -0.2209047906083154 1.060158437625351 5.300718429734469 0.022742321334158398 -0.003670634656238552 -0.25623678379113923 -0.2558620989353367
1800000000.0 -0.902772573623889 -0.2134849150393849 1.0931441140436022 5.13243369871457 0.022663542989413726 -0.0039228538781117695 -0.25988250239221206 -0.2579965914594484
1850000000.0 -0.9045826299853064 -0.20640031895490749 1.1227813455243363 4.972376922109896 0.02258112628490736 -0.004168327078488815 -0.26354303672441853 -0.2601639234193439
1900000000.0 -0.9062738921360484 -0.1996256707035343 1.149400074995632 4.819953839456129 0.022495318086753736 -0.004407359043849844 -0.26722051546863634 -0.26235551852711664
1950000000.0 -0.9078582569557905 -0.19313803807778518 1.1732903393811671 4.674626482850125 0.02240634326198676 -0.004640225655411438 -0.27091654380261154 -0.26456361079289004
2000000000.0 -0.9093461722686261 -0.1869166167446809 1.1947079832413559 4.53590677299538 0.02231440775247622 -0.004867177405194634 -0.274632280911294 -0.2667811600417982
2050000000.0 -0.9107468400995505 -0.18094249400576376 1.213879442517102 4.403350949370987 0.02221970113705381 -0.005088442447126741 -0.2783685052714289 -0.26900177819841076
2100000000.0 -0.912068387630711 -0.17519844277252644 1.2310057665347187 4.276554713827702 0.02212239877500987 -0.005304229250147948 -0.282125669900658 -0.27121966477017845
2150000000.0 -0.9133180115723861 -0.16966874144485744 1.2462660131369803 4.1551489858283635 0.022022663605688143 -0.005514728909842335 -0.28590394932719854 -0.2734295502085764
2200000000.0 -0.9145021005550638 -0.1643390160492107 1.2598201256440953 4.038796183336478 0.021920647664417647 -0.005720117166371133 -0.28970327969546206 -0.27562664603256326
2250000000.0 -0.9156263392733405 -0.1591961015520457 1.2718113796863126 3.9271869565438466 0.021816493363578764 -0.005920556169203952 -0.293523393153492 -0.2778066007713562
2300000000.0 -0.9166957974170736 -0.15422791973158698 1.2823684715421175 3.8200373126573672 0.021710334578505464 -0.006116196023039235 -0.29736384745475963 -0.27996546092744024
2350000000.0 -0.917715005870553 -0.14942337138252518 1.2916073065236353 3.7170860792061435 0.021602297570671967 -0.006307176144183837 -0.30122405153614473 -0.2820996362811471
2400000000.0 -0.9186880222156221 -0.14477224095694938 1.2996325354575782 3.618092661083951 0.021492501774792096 -0.006493626452390766 -0.3051032876977383 -0.2842058689596372
2450000000.0 -0.9196184872166135 -0.1402651120211475 1.3065388788547774 3.522835053063605 0.021381060471766144 -0.006675668419520881 -0.3090007309000121 -0.28628120577788213
2500000000.0 -0.9205096736752117 -0.13589329214076395 1.3124122715252111 3.431108075014704 0.021268081365621475 -0.006853415993371248 -0.3129154656051213 -0.28832297343091123
2550000000.0 -0.9213645288080152 -0.13164874600345725 1.3173308548398674 3.342721801696224 0.021153667079501098 -0.0070269764124285625 -0.31684650051712415 -0.2903287561771275
2600000000.0 -0.9221857111076249 -0.12752403575459087 1.3213658393102372 3.2575001629227422 0.021037915583238802 -0.007196450925134525 -0.32079278151710133 -0.29229637570350486
2650000000.0 -0.9229756224909303 -0.12351226766265902 1.3245822564465322 3.1752796932345175 0.020920920562998997 -0.007361935425405159 -0.3247532030410869 -0.2942238729067685
2700000000.0 -0.9237364364090704 -0.11960704435113177 1.3270396158057582 3.0959084130332766 0.020802771741754485 -0.0075235210145673135 -0.32872661810931897 -0.2961094913615565
2750000000.0 -0.9244701224869852 -0.11580242193560386 1.3287924806240619 3.019244825559044 0.020683555157982373 -0.007681294498533421 -0.33271184718280034 -0.2979516622776225
2800000000.0 -0.9251784681722537 -0.11209287149248522 1.329890973347051 2.9451570161433596 0.02056335340878948 -0.007835338827901122 -0.33670768599630196 -0.299748990775053
2850000000.0 -0.9258630977996374 -0.10847324436010966 1.330381220639341 2.87352184193868 0.020442245862717878 -0.007985733487666274 -0.34071291249461966 -0.30150024332907843
2900000000.0 -0.9265254894166914 -0.10493874083724486 1.3303057460136478 2.804224201836125 0.02032030884667386 -0.008132554842401194 -0.3447262929803157 -0.3032043362556032
2950000000.0 -0.9271669896647312 -0.10148488189904914 1.3297038170141657 2.737156377584153 0.020197615810748953 -0.008275876442025992 -0.34874658756575383 -0.3048603251253465
3000000000.0 -0.9277888269666517 -0.09810748359794799 1.3286117528772832 2.6722174382413915 0.02007423747413767 -0.008415769292664452 -0.35277255500918303 -0.3064673950087335
3050000000.0 -0.928392123237065 -0.09480263385784164 1.3270631977425913 2.6093127010637076 0.019950241954878788 -0.008552302096540355 -0.3568029570037664 -0.3080248514661561
3100000000.0 -0.9289779042998662 -0.09156667140547736 1.3250893637697676 2.5483532427623765 0.019825694885745343 -0.008685541464397943 -0.3608365619792189 -0.3095321122087676
3150000000.0 -0.9295471091726374 -0.08839616661348686 1.3227192479096144 2.4892554557956625 0.01970065951827001 -0.008815552103515588 -0.36487214846796195 -0.3109886993642058
3200000000.0 -0.9301005983554995 -0.08528790405626015 1.3199798255634019 2.4319406449856174 0.01957519681660149 -0.00894239698403303 -0.3689085080811534 -0.31239423228961744
3250000000.0 -0.9306391612435135 -0.0822388666029896 1.3168962239264461 2.376334660300648 0.019449365542644318 -0.009066137485994871 -0.3729444481342439 -0.3137484208811655
3300000000.0 -0.9311635227659057 -0.07924622089244995 1.3134918774390671 2.3223675621219306 0.01932322233372414 -0.009186833529244605 -0.37697879395707207 -0.3150510593352506
3350000000.0 -0.9316743493419177 -0.07630730405170656 1.3097886674490267 2.2699733157297364 0.019196821773842725 -0.00930454368806156 -0.3810103909192716 -0.31630202032178745
3400000000.0 -0.9321722542314951 -0.07341961153640199 1.3058070479163943 2.219089512110842 0.01907021645943418 -0.00941932529222587 -0.3850381061983391 -0.31750124953444436
3450000000.0 -0.9326578023491017 -0.07058078598379379 1.3015661587573364 2.1696571125089528 0.01894345706040376 -0.009531234516009396 -0.3890608303146832 -0.31864876058665464
3500000000.0 -0.9331315146004018 -0.0677886069816065 1.297083928221501 2.1216202144210268 0.018816592377115925 -0.009640326456429581 -0.39307747845532126 -0.3197446302256227
3550000000.0 -0.9335938717941741 -0.06504098166619865 1.2923771655235985 2.074925836990513 0.018689669393906698 -0.00974665520195758 -0.39708699160563976 -0.32078899383953186
3600000000.0 -0.9340453181754517 -0.06233593607276555 1.2874616447996454 2.029523723966213 0.01856273332960576 -0.009850273892745901 -0.40108833750668577 -0.3217820412358575
3650000000.0 -0.934486264620345 -0.05967160716839737 1.282352181327651 1.9853661625884702 0.018435827685490045 -0.009951234773323964 -0.40508051145369084 -0.3227240126708206
3700000000.0 -0.9349170915282449 -0.057046235506020754 1.2770627008403364 1.942407816934277 0.018308994291022264 -0.010049589238617195 -0.40906253695007855 -0.32361519511219927
3750000000.0 -0.9353381514428958 -0.0544581584435766 1.271606302658487 1.9006055744040793 0.018182273347678638 -0.01014538787404412 -0.41303346622982345 -0.3244559187193197
3800000000.0 -0.9357497714302215 -0.05190580387843069 1.2659953172887228 1.8599184041665577 0.018055703471124427 -0.01023868049037882 -0.4169923806598893 -0.3252465535257402
3850000000.0 -0.9361522552376124 -0.04938768445202013 1.2602413590544597 1.8203072264963858 0.017929321731953628 -0.010329516153984204 -0.4209383910334521 -0.3259875063113747
3900000000.0 -0.9365458852565929 -0.046902392184172054 1.2543553742639337 1.7817347920457813 0.01780316369517841 -0.010417943212965148 -0.4248706377636706 -0.3266792176520963
3950000000.0 -0.9369309243083769 -0.044448593500491046 1.248347685361958 1.7441655701847836 0.017677263458623565 -0.010504009319729498 -0.4287882909869247 -0.32732215913588436
4000000000.0 -0.93730761726967 -0.04202502461975538 1.2422280314622656 1.7075656456288204 0.01755165369035342 -0.010587761450394749 -0.43269055058379113 -0.32791683073552536
4050000000.0 -0.9376761925542106 -0.039630487271385656 1.2360056056130742 1.671902622647624 0.017426365665242916 -0.010669245921434938 -0.43657664612523595 -0.32846375832868935
4100000000.0 -0.9380368634638737 -0.03726384471589855 1.2296890891103458 1.637145536216059 0.01730142930077898 -0.01074850840391607 -0.4404458367510419 -0.3289634913570026
4150000000.0 -0.9383898294217284 -0.03492401804375361 1.223286683138624 1.603264769527914 0.01717687319216705 -0.0108255939356366 -0.44429741098685094 -0.32941660061628447
4200000000.0 -0.9387352770981194 -0.03260998273027502 1.21680613798999 1.5702319773473494 0.017052724646803324 -0.010900546931452754 -0.4481306865057323 -0.3298236761708436
4250000000.0 -0.9390733814397252 -0.030320765426360363 1.2102547800845769 1.5380200147209488 0.016929009718158947 -0.01097341119204016 -0.4519450098398088 -0.33018532538511985
4300000000.0 -0.9394043066105251 -0.02805544096650392 1.2036395369930946 1.506602870617051 0.01680575323911643 -0.011044229911316629 -0.45573975604693684 -0.33050217106649904
4350000000.0 -0.9397282068527063 -0.025813129577305916 1.1969669606407485 1.4759556060979024 0.016682978854786937 -0.011113045682722924 -0.45951432833717765 -0.33077484971354165
4400000000.0 -0.9400452272747487 -0.023592994271125434 1.1902432488537578 1.4460542966653416 0.016560709054830793 -0.011179900504543955 -0.4632681576634209 -0.3310040098642075
4450000000.0 -0.9403555045732095 -0.02139423841085014 1.183474265393264 1.4168759784528806 0.01643896520529943 -0.011244835784423882 -0.46700070228012514 -0.33119031053905423
4500000000.0 -0.9406591676940986 -0.019216103432977416 1.1766655586067865 1.3883985979652163 0.01631776758000965 -0.011307892343218934 -0.47071144727397823 -0.33133441977464106
4550000000.0 -0.9409563384391636 -0.017057866717277326 1.1698223788146491 1.3606009650924782 0.016197135391458006 -0.011369110418309965 -0.47439990406991156 -0.33143701324268804
4600000000.0 -0.9412471320219075 -0.014918839592298616 1.1629496945370514 1.3334627091499065 0.016077086821280135 -0.01142852966648383 -0.4780656099156657 -0.3314987729507499
4650000000.0 -0.9415316575776866 -0.012798365466870298 1.1560522076575153 1.3069642377147874 0.015957639050256375 -0.01148618916648501 -0.4817081273479169 -0.33152038602050493
4700000000.0 -0.9418100186318638 -0.01069581807855774 1.1491343676088133 1.2810866980518878 0.015838808287863923 -0.011542127421314247 -0.4853270436426595 -0.33150254353978237
4750000000.0 -0.942082313529582 -0.008610599850766787 1.142200384659723 1.255811940935867 0.015720609801372788 -0.011596382360356788 -0.4889219702524911 -0.3314459394848669
4800000000.0 -0.9423486358304438 -0.006542140350866643 1.1352542423732908 1.2311224866954051 0.01560305794448278 -0.011648991341398173 -0.4924925422330324 -0.33135126970961637
4850000000.0 -0.9426090746710418 -0.004489894842292619 1.1282997093008378 1.207001493317695 0.015486166185496142 -0.011699991152588206 -0.49603841766079493 -0.33121923099820644
4900000000.0 -0.9428637150980488 -0.0024533429241599958 1.1213403499701464 1.1834327264656062 0.01536994713502457 -0.011749418014398983 -0.49955927704439246 -0.3310505201784508
4950000000.0 -0.943112638374325 -0.0004319872524132795 1.1143795352206651 1.160400531271299 0.015254412573220397 -0.011797307581618326 -0.5030548227310453 -0.3308458332927282
5000000000.0 -0.9433559222602845 0.00157464766299531 1.107420451934167 1.1378898057813602 0.015139573476529854 -0.01184369494541574 -0.5065247783100256 -0.3306058648237733
5050000000.0 -0.9435936412725596 0.0035670165899970296 1.100466112204744 1.1158859759382207 0.015025440043964902 -0.01188861463550796 -0.5099688880146369 -0.3303313069726599
5100000000.0 -0.9438258669218371 0.005545554640063455 1.093519361988326 1.094374971991724 0.014912021722883265 -0.011932100622449588 -0.5133869161241805 -0.3300228489864197
5150000000.0 -0.9440526679315737 0.007510678271989479 1.0865828892683669 1.0733432062431079 0.014799327234278035 -0.011974186320069746 -0.5167786463672113 -0.3296811765329001
5200000000.0 -0.944274110439142 0.009462786237831922 1.0796592317711573 1.0527775520311546 0.014687364597568288 -0.012014904588069666 -0.5201438813273027 -0.32930697112049717
5250000000.0 -0.9444902581808481 0.0114022604747408 1.0727507842616217 1.0326653238771732 0.014576141154887888 -0.012054287734793272 -0.5234824418524116 -0.3289009095605944
5300000000.0 -0.9447011726621131 0.013329466946145008 1.065859805447499 1.0129942587118714 0.01446566359487271 -0.012092367520182293 -0.5267941664688645 -0.32846366347051426
5350000000.0 -0.9449069133140298 0.015244756435513152 1.0589884245179753 0.9937524981130703 0.014355937975938107 -0.012129175158919786 -0.5300789108008376 -0.3279958988150239
5400000000.0 -0.9451075376373841 0.01714846529567149 1.052138647340293 0.9749285714883184 0.014246969749047933 -0.012164741323769164 -0.5333365469961885 -0.32749827548436666
5450000000.0 -0.9453031013351529 0.019040916156452203 1.045312362336253 0.956511380141615 0.014138763779975444 -0.012199096149107545 -0.5365669631593565 -0.3269714469070148
5500000000.0 -0.9454936584343953 0.02092241859326549 1.0385113460587467 0.938490182167772 0.014031324371049758 -0.01223226923465539 -0.5397700627919881 -0.3264160596953183
5550000000.0 -0.9456792613984 0.022793269758980605 1.031737268486772 0.9208545781221689 0.01392465528239506 -0.012264289649401593 -0.5429457642418845 -0.3258327533223597
5600000000.0 -0.9458599612298473 0.024653754981369902 1.0249916980560894 0.9035944974173432 0.013818759752656368 -0.012295185935719127 -0.5460940001608019 -0.32522215982835917
5650000000.0 -0.9460358075657249 0.026504148328189425 1.018276106441323 0.8867001854015111 0.013713640519218667 -0.012324986113667849 -0.5492147169715395 -0.3245849035550537
5700000000.0 -0.9462068487646335 0.028344713141852475 1.0115918731041986 0.8701621910771706 0.013609299837919246 -0.012353717685481547 -0.5523078743447285 -0.3239216009065849
5750000000.0 -0.9463731319871114 0.030175702545487376 1.0049402896213733 0.8539713554209263 0.013505739502251118 -0.012381407640225467 -0.5553734446856876 -0.3232328601354033
5800000000.0 -0.9465347032695066 0.031997359922112945 0.9983225638045576 0.8381188002686044 0.013402960862072166 -0.012408082458631467 -0.558411412631583 -0.32251928115184514
5850000000.0 -0.9466916075919413 0.03380991936847055 0.9917398236245583 0.8225959177318451 0.013300964841809777 -0.012433768118086205 -0.5614217745592116 -0.32178145535606645
5900000000.0 -0.9468438889408082 0.03561360612502257 0.9851931209500772 0.8073943601151075 0.013199751958176255 -0.012458490097779412 -0.5644045381035586 -0.32101996549104317
5950000000.0 -0.9469915903662631 0.03740863698348734 0.9786834351114821 0.7925060303038614 0.013099322337392628 -0.012482273383993825 -0.5673597216873145 -0.32023538551546826
6000000000.0 -0.9471347540350854 0.03919522067321496 0.972211676298862 0.7779230725969142 0.012999675731930962 -0.012505142475534387 -0.5702873540614686 -0.3194282804953656
6050000000.0 -0.9472734212793036 0.04097355822760024 0.9657786888032576 0.7636378639574509 0.012900811536775823 -0.012527121389283746 -0.5731874738570848 -0.3185992065133323
6100000000.0 -0.9474076326408953 0.04274384333168657 0.9593852541092315 0.7496430056592917 0.012802728805216572 -0.012548233665877762 -0.5760601291483014 -0.31774871059436044
