! Created Mon Feb 12 23:42:28 2024
# hz S ma R 50
! 2 Port Network Data from SP1.SP block
! freq  magS11  angS11  magS21  angS21  magS12  angS12  magS22  angS22  
!     
         500000000          0.932658        -125.984991         18.3232833         110.481812       0.0225190054         21.3298076        0.308031844        -107.094802
         550000000        0.93027504         -130.33092         16.9361146         107.819565       0.0228940973         18.7537853        0.305929198        -110.757387
         600000000       0.928363224        -134.079012         15.7252943         105.453236       0.0231881172         16.4735723        0.304720091        -113.843568
         650000000       0.926818802        -137.339234         14.6623535         103.327509       0.0234206075         14.4338769        0.304245455        -116.455175
         700000000       0.925563434        -140.197645         13.7237942         101.399406       0.0236056664         12.5917407        0.304380952        -118.674293
         750000000       0.924537751        -142.722133         12.8903329         99.6352296       0.0237536084         10.9134798        0.305029146        -120.567338
         800000000        0.92369646        -144.966717         12.1461538         98.0083029       0.0238720864         9.37242763        0.306113155        -122.188314
         850000000       0.923004728        -146.974767         11.4782545         96.4973035       0.0239668557         7.94727006        0.307571728        -123.581368
         900000000       0.922435528        -148.781408         10.8759029         95.0850301       0.0240423013         6.62081193        0.309355519        -124.782795
         950000000       0.921967695        -150.415327         10.3301967         93.7574819        0.024101805         5.37905756        0.311424288        -125.822594
             1e+09       0.921584507        -151.900146         9.83371184         92.5031674       0.0241480056         4.21051944        0.313744803        -126.725698
          1.05e+09       0.921272633        -153.255466         9.38022251         91.3125797       0.0241829843         3.10569401        0.316289278        -127.512925
           1.1e+09       0.921021353        -154.497668         8.96447852         90.1777953       0.0242083997         2.05666061        0.319034185        -128.201743
          1.15e+09       0.920821975        -155.640535         8.58202816         89.0921647       0.0242255863           1.056772        0.321959369        -128.806869
           1.2e+09       0.920667395        -156.695742         8.22907661         88.0500711       0.0242356278        0.100413331        0.325047364         -129.34075
          1.25e+09       0.920551761        -157.673233         7.90237247         87.0467412       0.0242394118       -0.817186938        0.328282879        -129.813949
           1.3e+09       0.920470217         -158.58153         7.59911615         86.0780956       0.0242376712        -1.70010676        0.331652391        -130.235459
          1.35e+09       0.920418707        -159.427974         7.31688581         85.1406293       0.0242310163         -2.5518498        0.335143841        -130.612957
           1.4e+09       0.920393814        -160.218918         7.05357699          84.231316       0.0242199588        -3.37544134        0.338746385         -130.95301
          1.45e+09       0.920392647         -160.95989         6.80735323         83.3475302       0.0242049311         -4.1735057        0.342450204        -131.261252
           1.5e+09        0.92041274        -161.655718         6.57660541         82.4869846        0.024186301        -4.94832944        0.346246351        -131.542518
          1.55e+09       0.920451978        -162.310638          6.3599182         81.6476778       0.0241643836        -5.70191303        0.350126632        -131.800971
           1.6e+09       0.920508534        -162.928382         6.15604216         80.8278522       0.0241394506        -6.43601333        0.354083498        -132.040193
          1.65e+09       0.920580823        -163.512246         5.96387043         80.0259584       0.0241117378        -7.15217902        0.358109976        -132.263274
           1.7e+09       0.920667463        -164.065158         5.78241923          79.240626       0.0240814511        -7.85177992        0.362199593        -132.472875
          1.75e+09       0.920767236        -164.589722         5.61081138         78.4706388       0.0240487714        -8.53603163        0.366346326        -132.671296
           1.8e+09       0.920879071        -165.088263         5.44826244         77.7149141       0.0240138587         -9.2060162        0.370544554        -132.860519
          1.85e+09       0.921002015        -165.562866         5.29406886         76.9724855       0.0239768553         -9.8626997        0.374789022        -133.042254
           1.9e+09       0.921135217          -166.0154         5.14759795         76.2424875       0.0239378882        -10.5069469        0.379074802        -133.217975
          1.95e+09       0.921277917         -166.44755         5.00827921         75.5241434        0.023897072        -11.1395344        0.383397271        -133.388952
             2e+09       0.921429428         -166.86084         4.87559697         74.8167539         0.02385451        -11.7611606        0.387752084        -133.556276
          2.05e+09       0.921589127        -167.256644           4.749084         74.1196884       0.0238102963        -12.3724559         0.39213515        -133.720887
           2.1e+09       0.921756449        -167.636214           4.628316         73.4323764       0.0237645168        -12.9739904        0.396542618        -133.883587
          2.15e+09       0.921930878        -168.000684         4.51290681         72.7543011       0.0237172503        -13.5662804        0.400970856        -134.045064
           2.2e+09       0.922111939        -168.351092         4.40250422          72.084993       0.0236685697        -14.1497952        0.405416439        -134.205904
          2.25e+09       0.922299196        -168.688382         4.29678638         71.4240246       0.0236185423        -14.7249618        0.409876132        -134.366603
           2.3e+09       0.922492244        -169.013419         4.19545862         70.7710062        0.023567231        -15.2921695        0.414346883        -134.527582
          2.35e+09        0.92269071        -169.326995          4.0982506         70.1255816       0.0235146943        -15.8517742        0.418825809        -134.689192
           2.4e+09       0.922894242         -169.62984         4.00491391         69.4874247       0.0234609874        -16.4041017        0.423310187        -134.851729
          2.45e+09       0.923102515        -169.922623         3.91521989         68.8562363        0.023406162        -16.9494507        0.427797442        -135.015434
           2.5e+09       0.923315223         -170.20596         3.82895771         68.2317416        0.023350267        -17.4880959        0.432285143        -135.180506
          2.55e+09       0.923532077        -170.480421         3.74593264         67.6136874        0.023293349          -18.02029        0.436770993        -135.347105
           2.6e+09       0.923752807        -170.746532         3.66596461         67.0018402       0.0232354519        -18.5462662        0.441252822        -135.515356
          2.65e+09       0.923977156         -171.00478          3.5888868         66.3959846       0.0231766179        -19.0662396         0.44572858        -135.685357
           2.7e+09       0.924204881        -171.255616         3.51454447         65.7959208        0.023116887        -19.5804097        0.450196333        -135.857178
          2.75e+09        0.92443575        -171.499459         3.44279389         65.2014639       0.0230562979         -20.088961        0.454654253        -136.030868
           2.8e+09       0.924669546        -171.736698         3.37350138         64.6124422       0.0229948875         -20.592065        0.459100617        -136.206459
          2.85e+09       0.924906058        -171.967695         3.30654241         64.0286958       0.0229326912        -21.0898811        0.463533798        -136.383964
           2.9e+09       0.925145087        -172.192787         3.24180089          63.450076       0.0228697434         -21.582558        0.467952263        -136.563382
          2.95e+09       0.925386442         -172.41229         3.17916843         62.8764437        0.022806077        -22.0702341         0.47235457        -136.744702
             3e+09        0.92562994        -172.626495          3.1185437         62.3076693        0.022741724        -22.5530391        0.476739357          -136.9279
          3.05e+09       0.925875407        -172.835679         3.05983189         61.7436311       0.0226767152        -23.0310941        0.481105347        -137.112946
           3.1e+09       0.926122674        -173.040096         3.00294418         61.1842152       0.0226110806        -23.5045128        0.485451336          -137.2998
          3.15e+09        0.92637158        -173.239989         2.94779727         60.6293144       0.0225448492         -23.973402        0.489776196        -137.488417
           3.2e+09       0.926621971        -173.435581         2.89431298         60.0788282       0.0224780491         -24.437862        0.494078866        -137.678748
          3.25e+09       0.926873697        -173.627085          2.8424178         59.5326616       0.0224107076        -24.8979876        0.498358354        -137.870738
           3.3e+09       0.927126615        -173.814699         2.79204263          58.990725       0.0223428514        -25.3538679         0.50261373         -138.06433
          3.35e+09       0.927380586        -173.998609         2.74312236         58.4529337       0.0222745063        -25.8055873        0.506844124        -138.259462
           3.4e+09       0.927635479        -174.178991         2.69559567         57.9192076       0.0222056974        -26.2532258        0.511048726        -138.456073
          3.45e+09       0.927891165        -174.356011         2.64940469         57.3894705       0.0221364492         -26.696859        0.515226779        -138.654099
           3.5e+09        0.92814752        -174.529823         2.60449481         56.8636503       0.0220667855        -27.1365588        0.519377579        -138.853474
          3.55e+09       0.928404426        -174.700575          2.5608144         56.3416782       0.0219967295        -27.5723938        0.523500473        -139.054132
           3.6e+09       0.928661767        -174.868405         2.51831465         55.8234887       0.0219263039        -28.0044291        0.527594856        -139.256009
          3.65e+09       0.928919434        -175.033444         2.47694935         55.3090194       0.0218555307        -28.4327269        0.531660169        -139.459037
           3.7e+09       0.929177319        -175.195815         2.43667474         54.7982104       0.0217844314        -28.8573466        0.535695895        -139.663151
          3.75e+09       0.929435321        -175.355635         2.39744934         54.2910046       0.0217130268        -29.2783451         0.53970156        -139.868285
           3.8e+09       0.929693339        -175.513015         2.35923378         53.7873472       0.0216413374        -29.6957769         0.54367673        -140.074376
          3.85e+09       0.929951278         -175.66806          2.3219907         53.2871853       0.0215693831        -30.1096945        0.547621009        -140.281359
           3.9e+09       0.930209047        -175.820868          2.2856846         52.7904686       0.0214971833         -30.520148        0.551534037        -140.489172
          3.95e+09       0.930466556        -175.971534         2.25028173          52.297148       0.0214247568         -30.927186        0.555415489        -140.697753
             4e+09        0.93072372        -176.120146         2.21574996         51.8071768       0.0213521221        -31.3308551        0.559265073        -140.907042
          4.05e+09       0.930980457         -176.26679         2.18205874         51.3205094       0.0212792971        -31.7312005        0.563082527        -141.116979
           4.1e+09       0.931236688        -176.411545         2.14917894         50.8371019       0.0212062993        -32.1282657        0.566867621        -141.327508
          4.15e+09       0.931492336        -176.554488          2.1170828         50.3569118       0.0211331457        -32.5220929        0.570620153        -141.538572
           4.2e+09       0.931747329        -176.695692         2.08574384         49.8798979       0.0210598529        -32.9127229        0.574339949        -141.750117
          4.25e+09       0.932001595        -176.835226         2.05513678         49.4060203        0.020986437        -33.3001955        0.578026859        -141.962088
           4.3e+09       0.932255067        -176.973155         2.02523749           48.93524       0.0209129138        -33.6845492        0.581680759        -142.174435
          4.35e+09        0.93250768        -177.109541          1.9960229         48.4675193       0.0208392986        -34.0658215         0.58530155        -142.387107
           4.4e+09       0.932759371        -177.244445         1.96747096         48.0028213       0.0207656063        -34.4440488        0.588889153        -142.600055
          4.45e+09        0.93301008        -177.377923         1.93956057         47.5411101       0.0206918513        -34.8192667        0.592443511        -142.813233
           4.5e+09       0.933259751         -177.51003         1.91227154         47.0823506       0.0206180478        -35.1915099        0.595964589        -143.026595
          4.55e+09       0.933508327        -177.640816         1.88558454         46.6265088       0.0205442095        -35.5608123        0.599452369        -143.240096
           4.6e+09       0.933755756        -177.770332         1.85948103          46.173551       0.0204703497         -35.927207        0.602906853        -143.453695
          4.65e+09       0.934001987        -177.898624         1.83394325         45.7234446       0.0203964813        -36.2907264         0.60632806         -143.66735
           4.7e+09       0.934246972        -178.025738         1.80895417         45.2761574       0.0203226169        -36.6514022        0.609716025        -143.881021
          4.75e+09       0.934490665        -178.151715         1.78449743         44.8316581       0.0202487688        -37.0092656        0.613070798        -144.094671
           4.8e+09       0.934733021        -178.276599         1.76055733         44.3899157       0.0201749488        -37.3643471        0.616392446        -144.308262
          4.85e+09       0.934973999        -178.400426         1.73711881         43.9508999       0.0201011683        -37.7166764        0.619681048         -144.52176
           4.9e+09       0.935213559        -178.523236         1.71416737         43.5145811       0.0200274387        -38.0662832        0.622936698        -144.735129
          4.95e+09       0.935451662        -178.645065         1.69168908           43.08093       0.0199537707        -38.4131961        0.626159502        -144.948339
             5e+09       0.935688271        -178.765946         1.66967055         42.6499178       0.0198801748        -38.7574437        0.629349576        -145.161357
          5.05e+09       0.935923353        -178.885913         1.64809888         42.2215161       0.0198066612        -39.0990539         0.63250705        -145.374153
           5.1e+09       0.936156874        -179.004997         1.62696166         41.7956971       0.0197332397        -39.4380542        0.635632063        -145.586699
          5.15e+09       0.936388803         -179.12323         1.60624695         41.3724334       0.0196599199        -39.7744717        0.638724765        -145.798966
           5.2e+09       0.936619111        -179.240639         1.58594322         40.9516978        0.019586711        -40.1083331        0.641785314        -146.010929
          5.25e+09        0.93684777        -179.357253         1.56603939         40.5334637        0.019513622        -40.4396647        0.644813877        -146.222562
           5.3e+09       0.937074754          -179.4731         1.54652475         40.1177047       0.0194406615        -40.7684924        0.647810631        -146.433841
          5.35e+09       0.937300038        -179.588203         1.52738899         39.7043948       0.0193678379         -41.094842        0.650775759        -146.644743
           5.4e+09       0.937523597         -179.70259         1.50862214         39.2935083       0.0192951592        -41.4187386        0.653709452        -146.855246
          5.45e+09       0.937745412        -179.816282         1.49021459         38.8850199       0.0192226332        -41.7402072        0.656611907        -147.065329
           5.5e+09        0.93796546        -179.929304         1.47215707         38.4789046       0.0191502675        -42.0592724        0.659483328        -147.274972
          5.55e+09       0.938183722         179.958323          1.4544406         38.0751376       0.0190780692        -42.3759588        0.662323926        -147.484156
           5.6e+09       0.938400182         179.846578         1.43705653         37.6736944       0.0190060455        -42.6902901        0.665133914        -147.692863
          5.65e+09       0.938614821          179.73544         1.41999648         37.2745509        0.018934203        -43.0022903        0.667913513        -147.901076
           5.7e+09       0.938827624         179.624889         1.40325236         36.8776831       0.0188625482        -43.3119828        0.670662949        -148.108777
          5.75e+09       0.939038577         179.514907         1.38681634         36.4830674       0.0187910875        -43.6193909         0.67338245        -148.315953
           5.8e+09       0.939247667         179.405475         1.37068084         36.0906803       0.0187198267        -43.9245376        0.676072249        -148.522588
          5.85e+09       0.939454881         179.296576         1.35483853         35.7004987       0.0186487717        -44.2274456        0.678732584        -148.728668
           5.9e+09       0.939660209         179.188192         1.33928232         35.3124998       0.0185779281        -44.5281374        0.681363694        -148.934181
          5.95e+09       0.939863639         179.080308         1.32400532         34.9266607       0.0185073011        -44.8266353        0.683965822        -149.139113
             6e+09       0.940065163         178.972907         1.30900089         34.5429591       0.0184368959        -45.1229613        0.686539214        -149.343454
          6.05e+09       0.940264773         178.865975         1.29426257         34.1613727       0.0183667173        -45.4171372        0.689084119        -149.547192
           6.1e+09       0.940462461         178.759495         1.27978411         33.7818794       0.0182967702        -45.7091845        0.691600786        -149.750317
          6.15e+09        0.94065822         178.653455         1.26555945         33.4044575       0.0182270589        -45.9991248        0.694089468         -149.95282
           6.2e+09       0.940852046          178.54784         1.25158271         33.0290854       0.0181575878         -46.286979        0.696550419        -150.154691
          6.25e+09       0.941043933         178.442638         1.23784819         32.6557417       0.0180883609         -46.572768        0.698983893        -150.355922
