! Created Mon Feb 12 23:46:59 2024
# hz S ma R 50
! 2 Port Network Data from SP1.SP block
! freq  magS11  angS11  magS21  angS21  magS12  angS12  magS22  angS22  
!     
         500000000       0.974292723         -107.02284      0.00240889871         38.6427969      0.00240889886         38.6428682        0.938352801         179.337099
         550000000       0.974192061        -112.246958      0.00248820475          36.250182      0.00248820491         36.2502468         0.93834815         179.270764
         600000000       0.974105601        -116.867612      0.00255423959         34.1592574      0.00255423975         34.1593167        0.938343011         179.204419
         650000000       0.974031176        -120.972609      0.00260962601         32.3260526      0.00260962618         32.3261074        0.938337388         179.138066
         700000000       0.973966862        -124.636224      0.00265643785         30.7133828      0.00265643802         30.7134336        0.938331284         179.071702
         750000000       0.973911009        -127.920932      0.00269631203         29.2899782      0.00269631219         29.2900256        0.938324702         179.005328
         800000000       0.973862225         -130.87917      0.00273054239         28.0295952      0.00273054256         28.0296396        0.938317645         178.938943
         850000000       0.973819351        -133.554968      0.00276015513         26.9102003       0.0027601553          26.910242        0.938310114         178.872546
         900000000       0.973781424        -135.985371      0.00278596788         25.9132583      0.00278596806         25.9132977        0.938302111         178.806137
         950000000       0.973747649        -138.201628      0.00280863571         25.0231317      0.00280863588         25.0231689        0.938293637         178.739714
             1e+09       0.973717367        -140.230202      0.00282868644         24.2265802      0.00282868662         24.2266156        0.938284693         178.673277
          1.05e+09       0.973690032        -142.093584      0.00284654799         23.5123494      0.00284654817         23.5123831        0.938275281         178.606825
           1.1e+09       0.973665189        -143.810969      0.00286256934         22.8708332      0.00286256952         22.8708653        0.938265399         178.540357
          1.15e+09        0.97364246        -145.398811      0.00287703684         22.2937976      0.00287703702         22.2938283        0.938255049         178.473873
           1.2e+09       0.973621528        -146.871267      0.00289018682         21.7741552        0.002890187         21.7741846        0.938244231         178.407371
          1.25e+09       0.973602125        -148.240575      0.00290221544           21.30578      0.00290221562         21.3058082        0.938232945         178.340852
           1.3e+09       0.973584028        -149.517354      0.00291328641         20.8833551      0.00291328659         20.8833822        0.938221191         178.274313
          1.35e+09       0.973567045        -150.710853      0.00292353711         20.5022479      0.00292353729         20.5022739         0.93820897         178.207756
           1.4e+09       0.973551016         -151.82916      0.00293308337         20.1584062      0.00293308355         20.1584312         0.93819628         178.141177
          1.45e+09         0.9735358        -152.879374      0.00294202336         19.8482724      0.00294202354         19.8482966        0.938183122         178.074578
           1.5e+09        0.97352128        -153.867749      0.00295044067         19.5687122      0.00295044085         19.5687356        0.938169495         178.007957
          1.55e+09       0.973507354         -154.79981      0.00295840677         19.3169545      0.00295840695         19.3169771          0.9381554         177.941313
           1.6e+09       0.973493933        -155.680456      0.00296598303         19.0905413      0.00296598321         19.0905631        0.938140835         177.874646
          1.65e+09       0.973480941        -156.514046       0.0029732224         18.8872854      0.00297322258         18.8873065        0.938125801         177.807954
           1.7e+09       0.973468312        -157.304466      0.00298017068         18.7052348      0.00298017086         18.7052553        0.938110298         177.741238
          1.75e+09       0.973455987        -158.055194      0.00298686769         18.5426422      0.00298686787          18.542662        0.938094323         177.674496
           1.8e+09       0.973443915        -158.769349      0.00299334813         18.3979391      0.00299334831         18.3979584        0.938077879         177.607727
          1.85e+09       0.973432052        -159.449739      0.00299964238         18.2697141      0.00299964256         18.2697328        0.938060963         177.540931
           1.9e+09       0.973420358        -160.098893      0.00300577709         18.1566933      0.00300577727         18.1567115        0.938043575         177.474107
          1.95e+09       0.973408799        -160.719098      0.00301177572         18.0577249      0.00301177591         18.0577426        0.938025715         177.407254
             2e+09       0.973397344        -161.312428        0.003017659          17.971764      0.00301765919         17.9717812        0.938007383         177.340372
          2.05e+09       0.973385964        -161.880762      0.00302344528         17.8978615      0.00302344547         17.8978783        0.937988577         177.273459
           2.1e+09       0.973374637        -162.425813      0.00302915085         17.8351528      0.00302915103         17.8351691        0.937969296         177.206514
          2.15e+09        0.97336334        -162.949143      0.00303479022         17.7828489       0.0030347904         17.7828648        0.937949542         177.139538
           2.2e+09       0.973352053        -163.452177      0.00304037633         17.7402282      0.00304037651         17.7402437        0.937929312         177.072529
          2.25e+09       0.973340758        -163.936222      0.00304592076         17.7066296      0.00304592094         17.7066448        0.937908606         177.005487
           2.3e+09       0.973329441        -164.402474      0.00305143391         17.6814462      0.00305143409          17.681461        0.937887424          176.93841
          2.35e+09       0.973318086        -164.852033       0.0030569251         17.6641198      0.00305692528         17.6641342        0.937865764         176.871298
           2.4e+09        0.97330668        -165.285911      0.00306240274         17.6541362      0.00306240292         17.6541504        0.937843626         176.804151
          2.45e+09       0.973295213        -165.705041      0.00306787442          17.651021      0.00306787461         17.6510348        0.937821009         176.736966
           2.5e+09       0.973283672        -166.110283      0.00307334701         17.6543355      0.00307334719          17.654349        0.937797913         176.669744
          2.55e+09       0.973272049        -166.502434       0.0030788267         17.6636738      0.00307882689          17.663687        0.937774337         176.602484
           2.6e+09       0.973260335        -166.882231      0.00308431916         17.6786594      0.00308431934         17.6786723        0.937750279         176.535185
          2.65e+09       0.973248521        -167.250357       0.0030898295         17.6989428      0.00308982969         17.6989555         0.93772574         176.467846
           2.7e+09         0.9732366        -167.607446      0.00309536241         17.7241991      0.00309536259         17.7242115        0.937700718         176.400466
          2.75e+09       0.973224565        -167.954088      0.00310092214         17.7541257      0.00310092232         17.7541379        0.937675212         176.333045
           2.8e+09       0.973212409        -168.290832      0.00310651259         17.7884405      0.00310651277         17.7884524        0.937649221         176.265582
          2.85e+09       0.973200128         -168.61819      0.00311213733         17.8268801      0.00311213751         17.8268918        0.937622745         176.198075
           2.9e+09       0.973187715        -168.936639      0.00311779963         17.8691986      0.00311779981           17.86921        0.937595783         176.130525
          2.95e+09       0.973175166        -169.246626      0.00312350249         17.9151654      0.00312350268         17.9151766        0.937568334         176.062931
             3e+09       0.973162476        -169.548566      0.00312924868          17.964565      0.00312924886          17.964576        0.937540396          175.99529
          3.05e+09        0.97314964        -169.842851      0.00313504073         18.0171948      0.00313504091         18.0172056         0.93751197         175.927604
           3.1e+09       0.973136655        -170.129846      0.00314088098          18.072865      0.00314088117         18.0728756        0.937483053         175.859871
          3.15e+09       0.973123516        -170.409896      0.00314677161         18.1313969      0.00314677179         18.1314073        0.937453645         175.792089
           3.2e+09       0.973110221        -170.683321      0.00315271461         18.1926225      0.00315271479         18.1926327        0.937423745         175.724259
          3.25e+09       0.973096766        -170.950426      0.00315871184         18.2563834      0.00315871202         18.2563934        0.937393351          175.65638
           3.3e+09       0.973083148        -171.211496        0.003164765         18.3225306      0.00316476519         18.3225404        0.937362464         175.588451
          3.35e+09       0.973069363        -171.466798       0.0031708757         18.3909232      0.00317087589         18.3909329        0.937331081          175.52047
           3.4e+09        0.97305541        -171.716587      0.00317704542         18.4614283       0.0031770456         18.4614378        0.937299202         175.452437
          3.45e+09       0.973041285          -171.9611      0.00318327553         18.5339201      0.00318327571         18.5339294        0.937266825         175.384352
           3.5e+09       0.973026986        -172.200564      0.00318956731         18.6082798      0.00318956749          18.608289        0.937233949         175.316213
          3.55e+09       0.973012512        -172.435191      0.00319592196         18.6843947      0.00319592214         18.6844037        0.937200574          175.24802
           3.6e+09       0.972997858        -172.665183       0.0032023406         18.7621581      0.00320234078          18.762167        0.937166698         175.179772
          3.65e+09       0.972983024        -172.890731      0.00320882428         18.8414689      0.00320882446         18.8414776         0.93713232         175.111467
           3.7e+09       0.972968007        -173.112014      0.00321537397          18.922231      0.00321537415         18.9222395        0.937097438         175.043106
          3.75e+09       0.972952805        -173.329204      0.00322199058         19.0043531      0.00322199076         19.0043615        0.937062052         174.974687
           3.8e+09       0.972937417        -173.542464      0.00322867499         19.0877485      0.00322867517         19.0877568        0.937026159          174.90621
          3.85e+09       0.972921841        -173.751948      0.00323542798         19.1723348      0.00323542817         19.1723429         0.93698976         174.837673
           3.9e+09       0.972906074        -173.957801      0.00324225034         19.2580334      0.00324225052         19.2580414        0.936952853         174.769077
          3.95e+09       0.972890116        -174.160163      0.00324914276         19.3447696      0.00324914294         19.3447775        0.936915436         174.700419
             4e+09       0.972873964        -174.359166      0.00325610593         19.4324722      0.00325610611           19.43248        0.936877507         174.631699
          4.05e+09       0.972857617        -174.554936      0.00326314048         19.5210732      0.00326314066         19.5210809        0.936839067         174.562917
           4.1e+09       0.972841074        -174.747593      0.00327024701         19.6105078      0.00327024719         19.6105153        0.936800113         174.494071
          4.15e+09       0.972824333        -174.937251      0.00327742609          19.700714      0.00327742627         19.7007215        0.936760644         174.425161
           4.2e+09       0.972807392         -175.12402      0.00328467827         19.7916329      0.00328467845         19.7916402        0.936720658         174.356186
          4.25e+09        0.97279025        -175.308001      0.00329200405         19.8832078      0.00329200423          19.883215        0.936680155         174.287144
           4.3e+09       0.972772907        -175.489296      0.00329940392         19.9753848       0.0032994041         19.9753919        0.936639132         174.218036
          4.35e+09       0.972755359        -175.667999      0.00330687834         20.0681122      0.00330687852         20.0681192        0.936597589         174.148859
           4.4e+09       0.972737607        -175.844199      0.00331442777         20.1613405      0.00331442794         20.1613474        0.936555523         174.079615
          4.45e+09       0.972719649        -176.017984       0.0033220526         20.2550222      0.00332205278          20.255029        0.936512934           174.0103
           4.5e+09       0.972701483        -176.189436      0.00332975326         20.3491122      0.00332975344         20.3491188        0.936469819         173.940916
          4.55e+09       0.972683108        -176.358634      0.00333753012         20.4435667       0.0033375303         20.4435733        0.936426178          173.87146
           4.6e+09       0.972664524        -176.525655      0.00334538355         20.5383441      0.00334538373         20.5383506        0.936382009         173.801932
          4.65e+09       0.972645728         -176.69057      0.00335331391         20.6334044      0.00335331409         20.6334108        0.936337309         173.732331
           4.7e+09        0.97262672         -176.85345      0.00336132153         20.7287092      0.00336132171         20.7287155        0.936292078         173.662656
          4.75e+09       0.972607499         -177.01436      0.00336940675         20.8242216      0.00336940693         20.8242278        0.936246314         173.592906
           4.8e+09       0.972588062        -177.173366      0.00337756988         20.9199062      0.00337757006         20.9199123        0.936200016         173.523081
          4.85e+09        0.97256841        -177.330528      0.00338581123         21.0157289      0.00338581141          21.015735        0.936153181          173.45318
           4.9e+09       0.972548541        -177.485906      0.00339413109         21.1116571      0.00339413127         21.1116631        0.936105808         173.383201
          4.95e+09       0.972528453        -177.639556      0.00340252974         21.2076594      0.00340252992         21.2076653        0.936057895         173.313143
             5e+09       0.972508147        -177.791532      0.00341100747         21.3037054      0.00341100765         21.3037112        0.936009441         173.243007
          5.05e+09       0.972487619        -177.941887      0.00341956455         21.3997662      0.00341956472         21.3997719        0.935960443          173.17279
           5.1e+09       0.972466871        -178.090672      0.00342820123         21.4958136      0.00342820141         21.4958193        0.935910901         173.102493
          5.15e+09       0.972445899        -178.237934      0.00343691777         21.5918209      0.00343691795         21.5918265        0.935860812         173.032114
           5.2e+09       0.972424703         -178.38372      0.00344571443         21.6877621      0.00344571461         21.6877675        0.935810174         172.961652
          5.25e+09       0.972403283        -178.528076      0.00345459145         21.7836121      0.00345459163         21.7836175        0.935758986         172.891106
           5.3e+09       0.972381636        -178.671044      0.00346354907         21.8793469      0.00346354924         21.8793522        0.935707246         172.820476
          5.35e+09       0.972359762        -178.812666      0.00347258752         21.9749434      0.00347258769         21.9749487        0.935654951          172.74976
           5.4e+09        0.97233766        -178.952983      0.00348170703         22.0703792      0.00348170721         22.0703844        0.935602101         172.678958
          5.45e+09       0.972315328        -179.092033      0.00349090784         22.1656327      0.00349090802         22.1656378        0.935548693         172.608068
           5.5e+09       0.972292765        -179.229853      0.00350019017         22.2606832      0.00350019034         22.2606883        0.935494724         172.537091
          5.55e+09       0.972269971        -179.366481      0.00350955423         22.3555107      0.00350955441         22.3555157        0.935440195         172.466024
           5.6e+09       0.972246944        -179.501949      0.00351900025         22.4500959      0.00351900043         22.4501009        0.935385101         172.394867
          5.65e+09       0.972223683        -179.636293      0.00352852845         22.5444201      0.00352852863          22.544425        0.935329441         172.323619
           5.7e+09       0.972200187        -179.769544      0.00353813904         22.6384654      0.00353813922         22.6384702        0.935273214         172.252279
          5.75e+09       0.972176454        -179.901735      0.00354783224         22.7322144      0.00354783241         22.7322192        0.935216417         172.180846
           5.8e+09       0.972152484         179.967105      0.00355760825         22.8256504      0.00355760842         22.8256551        0.935159048         172.109319
          5.85e+09       0.972128275         179.836947      0.00356746728         22.9187572      0.00356746746         22.9187619        0.935101105         172.037698
           5.9e+09       0.972103827         179.707761      0.00357740956         23.0115193      0.00357740973         23.0115239        0.935042586          171.96598
          5.95e+09       0.972079137          179.57952      0.00358743528         23.1039215      0.00358743546          23.103926        0.934983489         171.894166
             6e+09       0.972054206         179.452197      0.00359754467         23.1959494      0.00359754484         23.1959538        0.934923811         171.822255
          6.05e+09       0.972029031         179.325768      0.00360773792         23.2875888      0.00360773809         23.2875932         0.93486355         171.750245
           6.1e+09       0.972003612         179.200206      0.00361801524         23.3788263      0.00361801542         23.3788307        0.934802705         171.678135
          6.15e+09       0.971977947         179.075487      0.00362837686         23.4696488      0.00362837703         23.4696531        0.934741272         171.605924
           6.2e+09       0.971952035         178.951589      0.00363882297         23.5600435      0.00363882315         23.5600477         0.93467925         171.533612
          6.25e+09       0.971925875         178.828488      0.00364935379         23.6499983      0.00364935397         23.6500025        0.934616637         171.461198
