!Correction: S11(Full 2 Port(1,2)) 
!S21(Full 2 Port(1,2)) 
!S12(Full 2 Port(1,2)) 
!S22(Full 2 Port(1,2)) 
!S2P File: Measurements: S11, S21, S12, S22:
# Hz S  RI   R 50
2917187500 6.109735e-001 -3.607002e-001 -1.424625e+000 6.792732e-001 2.732153e-002 2.377230e-002 5.662277e-001 -2.947928e-001
2954375000 6.083840e-001 -3.616740e-001 -1.412798e+000 6.809298e-001 2.756978e-002 2.391033e-002 5.615023e-001 -2.948222e-001
2991562500 6.068232e-001 -3.623019e-001 -1.402882e+000 6.769697e-001 2.777455e-002 2.401238e-002 5.588411e-001 -2.957369e-001
3028750000 6.059158e-001 -3.624174e-001 -1.372080e+000 6.691768e-001 2.764660e-002 2.389216e-002 5.693788e-001 -2.967866e-001
3065937500 6.041765e-001 -3.648832e-001 -1.381661e+000 6.789370e-001 2.791267e-002 2.395391e-002 5.702565e-001 -2.977735e-001
3103125000 6.024666e-001 -3.667383e-001 -1.391341e+000 6.865817e-001 2.801998e-002 2.407050e-002 5.677955e-001 -2.991328e-001
3140312500 5.996537e-001 -3.701132e-001 -1.411762e+000 7.008942e-001 2.822988e-002 2.411582e-002 5.649477e-001 -3.013168e-001
3177500000 5.972846e-001 -3.730543e-001 -1.420012e+000 7.130088e-001 2.844844e-002 2.416123e-002 5.619445e-001 -3.024758e-001
3214687500 5.942263e-001 -3.755347e-001 -1.408999e+000 7.120782e-001 2.869861e-002 2.428458e-002 5.579948e-001 -3.046600e-001
3251875000 5.911847e-001 -3.775670e-001 -1.395632e+000 7.177195e-001 2.878170e-002 2.435388e-002 5.545424e-001 -3.065988e-001
3289062500 5.885465e-001 -3.784297e-001 -1.382315e+000 7.146363e-001 2.916290e-002 2.462521e-002 5.472751e-001 -3.076544e-001
3326250000 5.857279e-001 -3.797784e-001 -1.369075e+000 7.159035e-001 2.920233e-002 2.471857e-002 5.422580e-001 -3.080154e-001
3363437500 5.823947e-001 -3.805542e-001 -1.355421e+000 7.132960e-001 2.947241e-002 2.472185e-002 5.384942e-001 -3.086031e-001
3400625000 5.805987e-001 -3.808768e-001 -1.338280e+000 7.105066e-001 2.942089e-002 2.488519e-002 5.381759e-001 -3.087488e-001
3437812500 5.795714e-001 -3.805676e-001 -1.298259e+000 6.937796e-001 2.955371e-002 2.495520e-002 5.375885e-001 -3.087095e-001
3475000000 5.789133e-001 -3.809412e-001 -1.274993e+000 6.856086e-001 2.978283e-002 2.505228e-002 5.376718e-001 -3.101108e-001
3512187500 5.769460e-001 -3.821191e-001 -1.279303e+000 6.934618e-001 2.982664e-002 2.521292e-002 5.375228e-001 -3.102296e-001
3549375000 5.749079e-001 -3.849498e-001 -1.292741e+000 7.040044e-001 3.005362e-002 2.522929e-002 5.369204e-001 -3.119572e-001
3586562500 5.726159e-001 -3.871766e-001 -1.304035e+000 7.148049e-001 3.002583e-002 2.532095e-002 5.397958e-001 -3.133639e-001
3623750000 5.696694e-001 -3.902558e-001 -1.309952e+000 7.271566e-001 3.038057e-002 2.543376e-002 5.399569e-001 -3.152993e-001
3660937500 5.667667e-001 -3.920204e-001 -1.316011e+000 7.329768e-001 3.041791e-002 2.544314e-002 5.388419e-001 -3.165197e-001
3698125000 5.635557e-001 -3.945974e-001 -1.328911e+000 7.454726e-001 3.073774e-002 2.581383e-002 5.340230e-001 -3.178523e-00
3735312500 5.608929e-001 -3.964373e-001 -1.345446e+000 7.564844e-001 3.091981e-002 2.575728e-002 5.309552e-001 -3.194523e-001
3772500000 5.580632e-001 -3.981192e-001 -1.340973e+000 7.571663e-001 3.113116e-002 2.593935e-002 5.268219e-001 -3.197318e-001
3809687500 5.558249e-001 -3.995966e-001 -1.330659e+000 7.621396e-001 3.136713e-002 2.608960e-002 5.235783e-001 -3.209774e-001
3846875000 5.532147e-001 -4.010532e-001 -1.318759e+000 7.594755e-001 3.150955e-002 2.626816e-002 5.194556e-001 -3.214518e-001
3884062500 5.517827e-001 -4.016167e-001 -1.306057e+000 7.594475e-001 3.181703e-002 2.645420e-002 5.127396e-001 -3.221268e-001
3921250000 5.487742e-001 -4.028031e-001 -1.295405e+000 7.565315e-001 3.196516e-002 2.664174e-002 5.093585e-001 -3.221472e-001
3958437500 5.473891e-001 -4.033757e-001 -1.285671e+000 7.565331e-001 3.235115e-002 2.659482e-002 5.076234e-001 -3.229071e-001
3995625000 5.464832e-001 -4.035619e-001 -1.255628e+000 7.431187e-001 3.225549e-002 2.673362e-002 5.082198e-001 -3.228953e-001
4032812500 5.447931e-001 -4.045893e-001 -1.244907e+000 7.424851e-001 3.237679e-002 2.672437e-002 5.130481e-001 -3.241490e-001
4070000000 5.425349e-001 -4.064850e-001 -1.250681e+000 7.508967e-001 3.254971e-002 2.677750e-002 5.152161e-001 -3.250372e-001
4107187500 5.401180e-001 -4.087878e-001 -1.260087e+000 7.625946e-001 3.277265e-002 2.680839e-002 5.149768e-001 -3.271556e-001
4144375000 5.374079e-001 -4.108250e-001 -1.265027e+000 7.659341e-001 3.282968e-002 2.698112e-002 5.125523e-001 -3.267736e-001
4181562500 5.338101e-001 -4.135615e-001 -1.284757e+000 7.874885e-001 3.310890e-002 2.701555e-002 5.083114e-001 -3.282391e-001
4218750000 5.316853e-001 -4.149455e-001 -1.291137e+000 7.884879e-001 3.343607e-002 2.707728e-002 5.056298e-001 -3.294303e-001
4255937500 5.294005e-001 -4.165853e-001 -1.282476e+000 7.918521e-001 3.362672e-002 2.731408e-002 5.029812e-001 -3.295941e-001
4293125000 5.275401e-001 -4.176694e-001 -1.273272e+000 7.920551e-001 3.371657e-002 2.732478e-002 4.995190e-001 -3.305747e-001
4330312500 5.258366e-001 -4.186003e-001 -1.261067e+000 7.896622e-001 3.412114e-002 2.742540e-002 4.936786e-001 -3.307796e-001
4367500000 5.237530e-001 -4.200470e-001 -1.250847e+000 7.903101e-001 3.434988e-002 2.774896e-002 4.897940e-001 -3.313063e-001
4404687500 5.218943e-001 -4.211221e-001 -1.240737e+000 7.879750e-001 3.463032e-002 2.778918e-002 4.871584e-001 -3.320538e-001
4441875000 5.203579e-001 -4.219599e-001 -1.222626e+000 7.848408e-001 3.472941e-002 2.781140e-002 4.868004e-001 -3.332433e-001
4479062500 5.193778e-001 -4.217821e-001 -1.185697e+000 7.655752e-001 3.483668e-002 2.791289e-002 4.871094e-001 -3.340820e-001
4516250000 5.163562e-001 -4.237509e-001 -1.199509e+000 7.785029e-001 3.493541e-002 2.791571e-002 4.933734e-001 -3.353508e-001
4553437500 5.143877e-001 -4.255319e-001 -1.206121e+000 7.902529e-001 3.512974e-002 2.784917e-002 4.939901e-001 -3.355743e-001
4590625000 5.119134e-001 -4.269634e-001 -1.212279e+000 7.954964e-001 3.518064e-002 2.797554e-002 4.926322e-001 -3.373893e-001
4627812500 5.089981e-001 -4.294976e-001 -1.230054e+000 8.084472e-001 3.541860e-002 2.802754e-002 4.896005e-001 -3.376634e-001
4665000000 5.057790e-001 -4.313003e-001 -1.237569e+000 8.232917e-001 3.560792e-002 2.826292e-002 4.856934e-001 -3.381542e-001
4702187500 5.033431e-001 -4.329451e-001 -1.240480e+000 8.225622e-001 3.593195e-002 2.822134e-002 4.833827e-001 -3.398852e-001
4739375000 5.016813e-001 -4.339362e-001 -1.225737e+000 8.263782e-001 3.607811e-002 2.828217e-002 4.800631e-001 -3.400970e-001
4776562500 5.002047e-001 -4.350591e-001 -1.217982e+000 8.221102e-001 3.636786e-002 2.854537e-002 4.757387e-001 -3.404393e-001
4813750000 4.984330e-001 -4.361766e-001 -1.205765e+000 8.223471e-001 3.655174e-002 2.850519e-002 4.701515e-001 -3.411337e-001
4850937500 4.967643e-001 -4.370787e-001 -1.196713e+000 8.203874e-001 3.703193e-002 2.879046e-002 4.676248e-001 -3.422838e-001
4888125000 4.947813e-001 -4.377565e-001 -1.186199e+000 8.200196e-001 3.715000e-002 2.876573e-002 4.664189e-001 -3.425385e-001
4925312500 4.938957e-001 -4.378598e-001 -1.152906e+000 8.052664e-001 3.736488e-002 2.885221e-002 4.664647e-001 -3.440776e-001
4962500000 4.931095e-001 -4.383985e-001 -1.123718e+000 7.919703e-001 3.744417e-002 2.905274e-002 4.665111e-001 -3.444623e-001
4999687500 4.918103e-001 -4.393792e-001 -1.113353e+000 7.918582e-001 3.744875e-002 2.889469e-002 4.655017e-001 -3.447682e-001
5036875000 4.872639e-001 -4.427955e-001 -1.162145e+000 8.257663e-001 3.763575e-002 2.900748e-002 4.731778e-001 -3.461837e-001
5074062500 4.847987e-001 -4.444655e-001 -1.170437e+000 8.325703e-001 3.769983e-002 2.890726e-002 4.703090e-001 -3.474082e-001
5111250000 4.815049e-001 -4.467707e-001 -1.186618e+000 8.506792e-001 3.801099e-002 2.906253e-002 4.678764e-001 -3.481033e-001
5148437500 4.788842e-001 -4.480958e-001 -1.190502e+000 8.560995e-001 3.831856e-002 2.906451e-002 4.635854e-001 -3.485763e-001
5185625000 4.774366e-001 -4.495531e-001 -1.184944e+000 8.550462e-001 3.841637e-002 2.914388e-002 4.613828e-001 -3.497029e-001
5222812500 4.754226e-001 -4.503233e-001 -1.171921e+000 8.577127e-001 3.871931e-002 2.922942e-002 4.582916e-001 -3.500175e-001
5260000000 4.735887e-001 -4.515490e-001 -1.161273e+000 8.530132e-001 3.902688e-002 2.953972e-002 4.523626e-001 -3.504196e-001
5297187500 4.720703e-001 -4.523285e-001 -1.150763e+000 8.535535e-001 3.922477e-002 2.944938e-002 4.481342e-001 -3.508180e-001
5334375000 4.706314e-001 -4.535782e-001 -1.142331e+000 8.518378e-001 3.948731e-002 2.959502e-002 4.465471e-001 -3.513524e-001
5371562500 4.692535e-001 -4.543541e-001 -1.120958e+000 8.441296e-001 3.971471e-002 2.963909e-002 4.466841e-001 -3.520195e-001
5408750000 4.687631e-001 -4.539170e-001 -1.087965e+000 8.255624e-001 3.976044e-002 2.949518e-002 4.461902e-001 -3.527315e-001
5445937500 4.674447e-001 -4.543567e-001 -1.066766e+000 8.178886e-001 4.005193e-002 2.971843e-002 4.467357e-001 -3.542288e-001
5483125000 4.654419e-001 -4.559969e-001 -1.071445e+000 8.259176e-001 4.002072e-002 2.960481e-002 4.453173e-001 -3.542304e-001
5520312500 4.626802e-001 -4.578319e-001 -1.083623e+000 8.382486e-001 4.036779e-002 2.975911e-002 4.451817e-001 -3.557879e-001
5557500000 4.600196e-001 -4.598536e-001 -1.091952e+000 8.481308e-001 4.046434e-002 2.967284e-002 4.479574e-001 -3.565782e-001
5594687500 4.575274e-001 -4.613325e-001 -1.096748e+000 8.584749e-001 4.052246e-002 2.971253e-002 4.494672e-001 -3.578322e-001
5631875000 4.553005e-001 -4.627113e-001 -1.103411e+000 8.636207e-001 4.075234e-002 2.974066e-002 4.474213e-001 -3.581259e-001
5669062500 4.515417e-001 -4.649059e-001 -1.115009e+000 8.805283e-001 4.093795e-002 2.973566e-002 4.442261e-001 -3.593537e-001
5706250000 4.491938e-001 -4.668069e-001 -1.127735e+000 8.915911e-001 4.110821e-002 2.970846e-002 4.412248e-001 -3.595244e-001
5743437500 4.466718e-001 -4.681704e-001 -1.123881e+000 8.930424e-001 4.142166e-002 2.982860e-002 4.377508e-001 -3.602892e-001
5780625000 4.451144e-001 -4.691349e-001 -1.115022e+000 8.948760e-001 4.150425e-002 2.989095e-002 4.352599e-001 -3.610682e-001
5817812500 4.436630e-001 -4.700271e-001 -1.105070e+000 8.903828e-001 4.198451e-002 2.995597e-002 4.314413e-001 -3.611497e-001
5855000000 4.421875e-001 -4.709309e-001 -1.093799e+000 8.898319e-001 4.222836e-002 3.031117e-002 4.261062e-001 -3.611870e-001
5892187500 4.404602e-001 -4.716362e-001 -1.084250e+000 8.869396e-001 4.246359e-002 3.018053e-002 4.228669e-001 -3.618031e-001
5929375000 4.386635e-001 -4.726096e-001 -1.075757e+000 8.862486e-001 4.265804e-002 3.041125e-002 4.227363e-001 -3.623866e-001
5966562500 4.388804e-001 -4.725584e-001 -1.042922e+000 8.681980e-001 4.264871e-002 3.030568e-002 4.226408e-001 -3.629514e-001
6003750000 4.355049e-001 -4.744840e-001 -1.066137e+000 8.863427e-001 4.256293e-002 3.003909e-002 4.328168e-001 -3.645142e-001
6040937500 4.317961e-001 -4.771613e-001 -1.077997e+000 9.042401e-001 4.291883e-002 3.013571e-002 4.291309e-001 -3.652509e-001
6078125000 4.296200e-001 -4.784298e-001 -1.090140e+000 9.129667e-001 4.297549e-002 3.014368e-002 4.269289e-001 -3.657504e-001
6115312500 4.270040e-001 -4.799528e-001 -1.083145e+000 9.161599e-001 4.327654e-002 3.032920e-002 4.230407e-001 -3.665200e-001
6152500000 4.257407e-001 -4.808712e-001 -1.074323e+000 9.143800e-001 4.353104e-002 3.047356e-002 4.207721e-001 -3.670706e-001
6189687500 4.240416e-001 -4.815682e-001 -1.064499e+000 9.114304e-001 4.374556e-002 3.033859e-002 4.164893e-001 -3.674731e-001
6226875000 4.222669e-001 -4.825997e-001 -1.053485e+000 9.098797e-001 4.413748e-002 3.057356e-002 4.113083e-001 -3.673140e-001
6264062500 4.208802e-001 -4.833784e-001 -1.044541e+000 9.066251e-001 4.437748e-002 3.059616e-002 4.087673e-001 -3.676821e-001
6301250000 4.192734e-001 -4.841090e-001 -1.034620e+000 9.052846e-001 4.466587e-002 3.062674e-002 4.081971e-001 -3.686721e-001
6338437500 4.192372e-001 -4.839197e-001 -1.000894e+000 8.847462e-001 4.465608e-002 3.060277e-002 4.085614e-001 -3.690817e-001
6375625000 4.185780e-001 -4.839788e-001 -9.786155e-001 8.707998e-001 4.481333e-002 3.062921e-002 4.081351e-001 -3.700034e-001
6412812500 4.168221e-001 -4.849643e-001 -9.712382e-001 8.715808e-001 4.503784e-002 3.057448e-002 4.083240e-001 -3.705854e-001
6450000000 4.140934e-001 -4.864815e-001 -9.826374e-001 8.834317e-001 4.521115e-002 3.063112e-002 4.071893e-001 -3.710289e-001
6487187500 4.111591e-001 -4.882304e-001 -9.905617e-001 8.952468e-001 4.526316e-002 3.050049e-002 4.098147e-001 -3.719266e-001
6524375000 4.087470e-001 -4.898413e-001 -9.981255e-001 9.056048e-001 4.539659e-002 3.057975e-002 4.117454e-001 -3.727079e-001
6561562500 4.062835e-001 -4.911839e-001 -1.003185e+000 9.148403e-001 4.546269e-002 3.052742e-002 4.112819e-001 -3.735793e-001
6598750000 4.033441e-001 -4.930054e-001 -1.008609e+000 9.218748e-001 4.581559e-002 3.053399e-002 4.091673e-001 -3.738318e-001
6635937500 3.997686e-001 -4.948701e-001 -1.026703e+000 9.443473e-001 4.596386e-002 3.065833e-002 4.050252e-001 -3.750218e-001
6673125000 3.969901e-001 -4.961112e-001 -1.024845e+000 9.437651e-001 4.623313e-002 3.054249e-002 4.024893e-001 -3.750809e-001
6710312500 3.951837e-001 -4.973215e-001 -1.019118e+000 9.481071e-001 4.636562e-002 3.070370e-002 3.991010e-001 -3.757620e-001
6747500000 3.935928e-001 -4.978388e-001 -1.008717e+000 9.442187e-001 4.677910e-002 3.068091e-002 3.965288e-001 -3.761367e-001
6784687500 3.923419e-001 -4.986057e-001 -9.976889e-001 9.407617e-001 4.713381e-002 3.062437e-002 3.906721e-001 -3.762256e-001
6821875000 3.908029e-001 -4.994189e-001 -9.899746e-001 9.381874e-001 4.738425e-002 3.081946e-002 3.872613e-001 -3.762147e-001
6859062500 3.890285e-001 -4.999395e-001 -9.793049e-001 9.362897e-001 4.755501e-002 3.070576e-002 3.853947e-001 -3.766944e-001
6896250000 3.884105e-001 -5.001122e-001 -9.609144e-001 9.244028e-001 4.773274e-002 3.074035e-002 3.859902e-001 -3.772603e-001
6933437500 3.888339e-001 -4.995449e-001 -9.311453e-001 9.037266e-001 4.782426e-002 3.065428e-002 3.861929e-001 -3.779030e-001
6970625000 3.877479e-001 -4.999280e-001 -9.143593e-001 8.956868e-001 4.784853e-002 3.062978e-002 3.857463e-001 -3.785697e-001
7007812500 3.854768e-001 -5.012245e-001 -9.196036e-001 9.022798e-001 4.804077e-002 3.052201e-002 3.859673e-001 -3.790830e-001
7045000000 3.823889e-001 -5.025746e-001 -9.290240e-001 9.162588e-001 4.815571e-002 3.047828e-002 3.856749e-001 -3.795298e-001
7082187500 3.795508e-001 -5.039421e-001 -9.362204e-001 9.274924e-001 4.816984e-002 3.038637e-002 3.892491e-001 -3.804801e-001
7119375000 3.773238e-001 -5.052977e-001 -9.423117e-001 9.373096e-001 4.827268e-002 3.047471e-002 3.903106e-001 -3.810271e-001
7156562500 3.750425e-001 -5.066791e-001 -9.445703e-001 9.411251e-001 4.839407e-002 3.048685e-002 3.897960e-001 -3.818905e-001
7193750000 3.715905e-001 -5.089458e-001 -9.605224e-001 9.653998e-001 4.862839e-002 3.045304e-002 3.859342e-001 -3.815965e-001
7230937500 3.684355e-001 -5.103821e-001 -9.669864e-001 9.703295e-001 4.884389e-002 3.037764e-002 3.831011e-001 -3.830119e-001
7268125000 3.662882e-001 -5.117236e-001 -9.622038e-001 9.772124e-001 4.918869e-002 3.047465e-002 3.799732e-001 -3.826366e-001
7305312500 3.648909e-001 -5.120697e-001 -9.562879e-001 9.733862e-001 4.931781e-002 3.042293e-002 3.772993e-001 -3.833618e-001
7342500000 3.632248e-001 -5.127018e-001 -9.435506e-001 9.688948e-001 4.953289e-002 3.050202e-002 3.733535e-001 -3.831935e-001
7379687500 3.617940e-001 -5.130359e-001 -9.353611e-001 9.667184e-001 5.007563e-002 3.057414e-002 3.682500e-001 -3.829362e-001
7416875000 3.604780e-001 -5.140097e-001 -9.268386e-001 9.633435e-001 5.001543e-002 3.073295e-002 3.658898e-001 -3.832614e-001
7454062500 3.594192e-001 -5.146010e-001 -9.195900e-001 9.616155e-001 5.025321e-002 3.054189e-002 3.655991e-001 -3.839138e-001
7491250000 3.596504e-001 -5.139202e-001 -8.900237e-001 9.386540e-001 5.032700e-002 3.065117e-002 3.660368e-001 -3.845837e-001
7528437500 3.600094e-001 -5.137451e-001 -8.672321e-001 9.240755e-001 5.039670e-002 3.050312e-002 3.661528e-001 -3.851630e-001
7565625000 3.582698e-001 -5.144321e-001 -8.603643e-001 9.215109e-001 5.059875e-002 3.035799e-002 3.657137e-001 -3.867369e-001
7602812500 3.556726e-001 -5.159758e-001 -8.679367e-001 9.339743e-001 5.057909e-002 3.060900e-002 3.658528e-001 -3.861637e-001
7640000000 3.525744e-001 -5.173133e-001 -8.763069e-001 9.473417e-001 5.059226e-002 3.037372e-002 3.680842e-001 -3.876654e-001
7677187500 3.501668e-001 -5.189547e-001 -8.829234e-001 9.580830e-001 5.077147e-002 3.045116e-002 3.706700e-001 -3.883058e-001
7714375000 3.444944e-001 -5.213218e-001 -9.184695e-001 9.932403e-001 5.093420e-002 3.071101e-002 3.661279e-001 -3.886785e-001
7751562500 3.424739e-001 -5.226889e-001 -9.128187e-001 9.997479e-001 5.116741e-002 3.039277e-002 3.638720e-001 -3.893571e-001
7788750000 3.416420e-001 -5.234164e-001 -9.035907e-001 9.915445e-001 5.149012e-002 3.059085e-002 3.613396e-001 -3.895411e-001
7825937500 3.400255e-001 -5.241275e-001 -8.931189e-001 9.909694e-001 5.166688e-002 3.074471e-002 3.555872e-001 -3.898422e-001
7863125000 3.383121e-001 -5.244920e-001 -8.840524e-001 9.863362e-001 5.206707e-002 3.066706e-002 3.519306e-001 -3.903259e-001
7900312500 3.371496e-001 -5.254875e-001 -8.755081e-001 9.832357e-001 5.225490e-002 3.059675e-002 3.504208e-001 -3.903129e-001
7937500000 3.368610e-001 -5.251204e-001 -8.590890e-001 9.715964e-001 5.226299e-002 3.060597e-002 3.505635e-001 -3.907624e-001
7974687500 3.372188e-001 -5.249216e-001 -8.300920e-001 9.489083e-001 5.264648e-002 3.055469e-002 3.512787e-001 -3.921636e-001
8011875000 3.369595e-001 -5.251301e-001 -8.167362e-001 9.398329e-001 5.240085e-002 3.061534e-002 3.514245e-001 -3.913841e-001
8049062500 3.347274e-001 -5.257260e-001 -8.179437e-001 9.455472e-001 5.269859e-002 3.039763e-002 3.513732e-001 -3.925444e-001
8086250000 3.316604e-001 -5.275680e-001 -8.278584e-001 9.605958e-001 5.274618e-002 3.048747e-002 3.514706e-001 -3.934530e-001
8123437500 3.287663e-001 -5.286349e-001 -8.332764e-001 9.735423e-001 5.280809e-002 3.033144e-002 3.554849e-001 -3.940277e-001
8160625000 3.263745e-001 -5.301834e-001 -8.397162e-001 9.808158e-001 5.292522e-002 3.043053e-002 3.565560e-001 -3.944843e-001
8197812500 3.240629e-001 -5.313950e-001 -8.383349e-001 9.901379e-001 5.308628e-002 3.047940e-002 3.553216e-001 -3.960757e-001
8235000000 3.204611e-001 -5.335218e-001 -8.545202e-001 1.007922e+000 5.324125e-002 3.049136e-002 3.531782e-001 -3.958503e-001
8272187500 3.171259e-001 -5.343079e-001 -8.594217e-001 1.018890e+000 5.343485e-002 3.046770e-002 3.495483e-001 -3.960931e-001
8309375000 3.150257e-001 -5.359424e-001 -8.530216e-001 1.024164e+000 5.354447e-002 3.048466e-002 3.463441e-001 -3.972560e-001
8346562500 3.138751e-001 -5.365764e-001 -8.502174e-001 1.018926e+000 5.401490e-002 3.041386e-002 3.444324e-001 -3.969610e-001
8383750000 3.123617e-001 -5.371948e-001 -8.361146e-001 1.017339e+000 5.418835e-002 3.050338e-002 3.403276e-001 -3.973992e-001
8420937500 3.107890e-001 -5.379393e-001 -8.281983e-001 1.012132e+000 5.461160e-002 3.059812e-002 3.343055e-001 -3.973672e-001
8458125000 3.095984e-001 -5.385104e-001 -8.199784e-001 1.007941e+000 5.486463e-002 3.060319e-002 3.319348e-001 -3.975535e-001
8495312500 3.084142e-001 -5.389977e-001 -8.120289e-001 1.007211e+000 5.502913e-002 3.061065e-002 3.314232e-001 -3.977488e-001
8532500000 3.089118e-001 -5.382059e-001 -7.849708e-001 9.803180e-001 5.482315e-002 3.018536e-002 3.309539e-001 -3.991482e-001
8569687500 3.098024e-001 -5.386898e-001 -7.664919e-001 9.659792e-001 5.525322e-002 3.062310e-002 3.327736e-001 -3.997666e-001
8606875000 3.083310e-001 -5.390450e-001 -7.582226e-001 9.612542e-001 5.497246e-002 3.040953e-002 3.319037e-001 -3.996843e-001
8644062500 3.051208e-001 -5.405250e-001 -7.648952e-001 9.751269e-001 5.548647e-002 3.037474e-002 3.319297e-001 -4.014790e-001
8681250000 3.026252e-001 -5.419673e-001 -7.716237e-001 9.884021e-001 5.549432e-002 3.040355e-002 3.343847e-001 -4.020471e-001
