!Correction: S11(Full 2 Port(1,2))
!S21(Full 2 Port(1,2))
!S12(Full 2 Port(1,2))
!S22(Full 2 Port(1,2))
!S2P File: Measurements: S11, S21, S12, S22:
!
! Created with skrf 1.8.0 (http://scikit-rf.org).
# Hz S RI R 50.0 
!freq ReS11 ImS11 ReS21 ImS21 ReS12 ImS12 ReS22 ImS22
2917187500.0 0.9588176128523667 -0.2519389513418525 -2.1410791653318926 0.5317745986215247 0.010918598927723094 0.03334705447060943 0.8632333948283633 -0.17525528739298257
2954375000.0 0.9568511356511153 -0.2549306621875762 -2.1265363223579308 0.5403548462129737 0.011386109084943086 0.033703762150098994 0.8578567351008366 -0.17735528608249318
2991562500.0 0.9562411426417532 -0.25741223882019587 -2.114533695495724 0.5405740909346356 0.011750559034609285 0.03404030643962454 0.8562472425808031 -0.1795622904918151
3028750000.0 0.9561260742907272 -0.258927094074203 -2.0753492715876702 0.5403360315392975 0.01165413586242909 0.03399468105191848 0.8716097198868127 -0.17879555861798968
3065937500.0 0.9550145855448471 -0.26318799613974264 -2.093557927918446 0.5531844015313966 0.011838245152188271 0.03426859911341432 0.8747486387989322 -0.18093685275058902
3103125000.0 0.9540359040903952 -0.26663853244856 -2.1095802025138948 0.5623941358353156 0.012003115154723399 0.03446173487514737 0.8721907102090102 -0.1832441130196351
3140312500.0 0.951925572738773 -0.27154072932508966 -2.1426384336733526 0.5780669549128953 0.012151028419988184 0.034684797844481474 0.8699381144191418 -0.1871056463860925
3177500000.0 0.9502378612926912 -0.27538583897997027 -2.1579962063956373 0.5916482974800753 0.012575928173255344 0.03505899835316849 0.866441325429728 -0.18890041112327266
3214687500.0 0.9480110041223504 -0.278399064125651 -2.1450526986474694 0.5924369697031113 0.0128103462421795 0.03549483208021418 0.8628411085359552 -0.19141271396029574
3251875000.0 0.9470413194087626 -0.2810044377932397 -2.1320375184000278 0.6036828167595365 0.012951102702551733 0.03568388129804697 0.8600894231352776 -0.19376817189914497
3289062500.0 0.9459520976871478 -0.28290664111841424 -2.116403746612931 0.603733678358694 0.0134476360526507 0.03644323988304046 0.8528655977612849 -0.1960879635189346
3326250000.0 0.945155541118164 -0.2847634747742739 -2.103013960607864 0.6101214942404458 0.013835803293386063 0.03672634815216733 0.8481401634396994 -0.1976395187405593
3363437500.0 0.9432976586373958 -0.28680050634804805 -2.0874969074657175 0.6124575639291828 0.01430775633473517 0.03686079626574015 0.8455731894011553 -0.19953823250206304
3400625000.0 0.9431351163082544 -0.2898901060506165 -2.06705285808122 0.6173399404234817 0.014309585380940478 0.037294879140713375 0.8472234866245849 -0.2005803161120464
3437812500.0 0.9426033751594198 -0.29068192788000247 -2.009043825581352 0.608206482178568 0.014697820133228507 0.03753335172656197 0.8477738359317293 -0.20158605286591785
3475000000.0 0.9422958771978066 -0.2921408490268771 -1.9755134697769527 0.6052201473898388 0.015152020712909029 0.037749962974482465 0.8485847539281596 -0.20410447833611184
3512187500.0 0.9406728911202986 -0.29524692178058154 -1.985131161287721 0.6170954610330068 0.015239352311513991 0.03795225997381976 0.8494185496452844 -0.20469715749712608
3549375000.0 0.9392225617594989 -0.30022444765787243 -2.0076157457891277 0.6298578360745759 0.015420804002864408 0.038124045158183836 0.8499270331630567 -0.2073711368062527
3586562500.0 0.9382773813707652 -0.3031133198529325 -2.0298461032013178 0.6417368673605901 0.015299359400086983 0.0381627877492334 0.855341118264794 -0.2081630275400156
3623750000.0 0.9361875616657027 -0.30782738184988645 -2.044225051365883 0.658071601429808 0.015753738214293708 0.03854712377074115 0.8572788753051321 -0.21050692350500422
3660937500.0 0.9339479443397338 -0.3111254101599287 -2.0569556816603116 0.6649338603237155 0.0159652336886682 0.038572692405467505 0.8571958340216193 -0.21140081496242413
3698125000.0 0.9302318053733653 -0.3246210076710204 -2.069676986731435 1.628847884011691 0.030957951633181817 0.08419950413427982 0.17991021230131243 -4.938011919158155
3735312500.0 0.9305719068563068 -0.3184134671238503 -2.109917216427947 0.6914480499911857 0.01656751419547319 0.03937252926654527 0.8507142503594639 -0.21678858817465185
3772500000.0 0.9282205459310053 -0.3213992188516332 -2.1052868831471763 0.6945579479672136 0.017062081614376348 0.03973802435091196 0.8462712512782178 -0.21808750474533406
3809687500.0 0.927288535997371 -0.3243292113213839 -2.0955178515087156 0.7060762649510375 0.017278903717332445 0.04017402380347696 0.8440315047431979 -0.2205256955698583
3846875000.0 0.9260266309173621 -0.32693059714467887 -2.0805455789424796 0.706412221395473 0.017451053037369935 0.04045831458888561 0.8397728845122022 -0.22158099115017976
3884062500.0 0.9254039053428924 -0.328432330878372 -2.063661925799619 0.7119273886412388 0.01792118170797564 0.04093594735616195 0.8320591531609037 -0.2245308932685221
3921250000.0 0.9227528053784146 -0.33147983055612595 -2.04951762523352 0.7130116770922332 0.018309036508867983 0.04133461311942536 0.8288469621670344 -0.2257897394534551
3958437500.0 0.9227615887899825 -0.33297842595146593 -2.0383710679646683 0.7173659128676836 0.018925716502470054 0.04137458426522749 0.8277737926716378 -0.22726657588800148
3995625000.0 0.9229728830098842 -0.3335097842749739 -1.9950016157668569 0.707796407034144 0.018732973407648366 0.041462035697369726 0.8298048079312685 -0.2271008672344338
4032812500.0 0.9211579104179398 -0.33637400522720345 -1.981896923122648 0.7120594369445964 0.019062969962309943 0.041690942800002864 0.8374325129807241 -0.22822231255331726
4070000000.0 0.9195730278900356 -0.340255592074476 -1.9949239161578067 0.7238250211702142 0.019187279635736607 0.04167434206162542 0.8420401682470828 -0.22873354303415994
4107187500.0 0.9175636486860641 -0.3440331370441284 -2.013030159949986 0.7390386537529701 0.019509320890107873 0.04196976275917771 0.8427887703396963 -0.23192172971337954
4144375000.0 0.9159033912441892 -0.34732513633280954 -2.0231283517640977 0.7425997815735335 0.01942281287754187 0.042314112575687006 0.8408666052627821 -0.23151425011214155
4181562500.0 0.9128292907092673 -0.3522193611584654 -2.0585674387058144 0.7696203246650001 0.019881409812049528 0.042376872442780815 0.8367517058590368 -0.23468781854730328
4218750000.0 0.9115078741227012 -0.3552317514982512 -2.0697530972261187 0.7707000825575628 0.02044435937483711 0.04276529395126724 0.8344500600527449 -0.23684725933274897
4255937500.0 0.9096328475543439 -0.357768410855722 -2.0596964273405156 0.77909957519454 0.020620006584271895 0.04304747187994365 0.8318493020100252 -0.23782990380801391
4293125000.0 0.9088125449498117 -0.36039897296771917 -2.048643786261549 0.782904745185546 0.020964118849321013 0.04326129920475129 0.8282963343542391 -0.23936316074818245
4330312500.0 0.9075040868950979 -0.36172218692036434 -2.0308255911510797 0.7841016896366311 0.0215922598582442 0.04348654915036889 0.8212557551639796 -0.24162296566046784
4367500000.0 0.9059662177878072 -0.36481596046028775 -2.017469399025265 0.7895477081470789 0.021895086972834755 0.044224098890701495 0.8170780041782331 -0.24352474596329268
4404687500.0 0.904668836544289 -0.3668809808558311 -2.004205558089986 0.7902560328347775 0.022297187805554057 0.044454460470371264 0.814784272574862 -0.24515619854166656
4441875000.0 0.9035050150332768 -0.368615273611514 -1.978528762990909 0.7921925028156982 0.022581134469700188 0.04454524046505149 0.815111086270009 -0.24712669771975343
4479062500.0 0.9035125447533343 -0.3688920620281577 -1.9233210285427362 0.7759043618928579 0.022503441541645984 0.044773840977451254 0.8171591066834132 -0.2477509410924745
4516250000.0 0.9009548415326125 -0.372576116332983 -1.9502526312682034 0.7915231251173047 0.022689216216915258 0.0450032061121266 0.8272106906058092 -0.24796733443424226
4553437500.0 0.899601997044052 -0.3763233682434198 -1.9654331276632848 0.8082804415163773 0.022920733685565742 0.04488719182759446 0.829759824485769 -0.24802656260158706
4590625000.0 0.8970903497525542 -0.3793497785804538 -1.9768318420000344 0.8158285360627303 0.023269661387544445 0.0452053939285646 0.8291305390529937 -0.25110039464439227
4627812500.0 0.8952835023909429 -0.3838614958484066 -2.0071725978643373 0.8311450895462875 0.023622460569955626 0.045401947030030455 0.8258778501588273 -0.25245780757803216
4665000000.0 0.8919838915482856 -0.3872261930942909 -2.0229735295775626 0.8520494620386138 0.023674134169495605 0.04566258656442483 0.822173190851265 -0.25457440244248675
4702187500.0 0.8895043089286263 -0.3913827202777405 -2.0270065150720065 0.852255383097565 0.024370406470325283 0.04603387968521407 0.8194980096747793 -0.2572939272256365
4739375000.0 0.8887290914045052 -0.3927934135353395 -2.0085920458333373 0.8621989201739305 0.024809972481671445 0.04608293619287783 0.8159165410014606 -0.25797097020397153
4776562500.0 0.8875400500309192 -0.3950132536199839 -1.9961242508169632 0.8597620892440474 0.02504984839597682 0.04669050650471733 0.8108556375944385 -0.26016825709408753
4813750000.0 0.8862251337050431 -0.3968535648317931 -1.978922921754963 0.8639538198674374 0.02547812411876011 0.04652653358994429 0.8039313549222056 -0.26215959564864844
4850937500.0 0.8848918020189038 -0.39860033211302304 -1.9663125347340888 0.865117455768528 0.026093241518043667 0.04723802956108231 0.8013701416912693 -0.2644534068032752
4888125000.0 0.8832606325745815 -0.40127183913981657 -1.9525158243164475 0.869613970572201 0.026354777387788395 0.04718056879584065 0.8009880628833227 -0.26523558850949214
4925312500.0 0.8831194887096302 -0.4014096641011846 -1.9016793460578008 0.8578271016679737 0.02661590573855935 0.04743676404939748 0.8015160594383213 -0.26700880128062454
4962500000.0 0.8826329553535076 -0.4018144299866581 -1.8574971637306579 0.8467388622830962 0.026698304162338066 0.047781140129120096 0.802886091828035 -0.2673347036175145
4999687500.0 0.8814247963894404 -0.4035555685957603 -1.8430299715824097 0.8498780057328922 0.026850655152440374 0.04753824755609865 0.801925202690945 -0.2677821995089774
5036875000.0 0.8775989659121037 -0.4098082966629237 -1.9281473321433698 0.8875587853495349 0.026934601788807605 0.04787606101702676 0.8152033388134378 -0.268140092822887
5074062500.0 0.8749854269268015 -0.41391194039710216 -1.942544859370201 0.8978739217264015 0.02720843510002889 0.04796068430758423 0.8124029118975536 -0.2711420501363232
5111250000.0 0.8718745466458104 -0.4182416786678038 -1.971114244610901 0.9214042898425329 0.027813381782391032 0.04807689170376291 0.8097258527229194 -0.27280933091645426
5148437500.0 0.8694486289759054 -0.4211010502605462 -1.979152638751688 0.9286298772722489 0.028352210692461487 0.04833031113442672 0.8046278991319156 -0.2741654090907586
5185625000.0 0.8682980415694779 -0.4236630714691642 -1.9711382932842363 0.9297989452779234 0.02852952428093319 0.04850040188420323 0.8024066930866544 -0.27645175764602026
5222812500.0 0.8660500241236034 -0.42506896228421226 -1.9532362544284667 0.9379624837039856 0.028944678296087458 0.048687723212063806 0.7988430122153387 -0.27755147042276074
5260000000.0 0.8648746841736918 -0.42755006577764687 -1.936310821415312 0.9353031359213417 0.029373336925362887 0.04919119640315142 0.7912761711133022 -0.2796148867298669
5297187500.0 0.8633794209032739 -0.42879082917233335 -1.9209026636854605 0.9392501225553238 0.0298531476247409 0.0491874229752178 0.7859909595198985 -0.2810536533930309
5334375000.0 0.8620384615667368 -0.43150663010990314 -1.9089588163116833 0.9404945634435982 0.03014846041552962 0.04964864950641568 0.7848258130456054 -0.2823402912096945
5371562500.0 0.861257619272132 -0.43233920408549664 -1.877283133626474 0.935407355137322 0.030663809930053663 0.04963004013437213 0.7854701832390818 -0.2829543677244333
5408750000.0 0.8609736817723296 -0.4322955727864943 -1.8245436514447673 0.9183606463339796 0.03072373724913628 0.04965160597491017 0.7853722420560326 -0.2840415794399267
5445937500.0 0.8601121211704652 -0.43269882800855974 -1.7937771308668835 0.9132132271620759 0.031101908658800182 0.04997605491816051 0.7875169661373534 -0.2855118963223813
5483125000.0 0.8580208152029083 -0.43601179434809806 -1.8031447993658187 0.9249026237515854 0.031231655200727716 0.04981064277035196 0.7862714300316492 -0.285964839504263
5520312500.0 0.8552945522382213 -0.4398210613842742 -1.8254220246829151 0.9407513419939182 0.03159257170933864 0.050185344513096655 0.7873071161270321 -0.28800231825390954
5557500000.0 0.8526970756538286 -0.44323830026398625 -1.8424729535058022 0.9538661165381311 0.031616288818514596 0.0500532037960663 0.7928533329479378 -0.2882806922920714
5594687500.0 0.8501973769971845 -0.44685799586317426 -1.8541278862047879 0.9699706224473089 0.03178428473005214 0.05017641525185849 0.7962737355685987 -0.2897385782796029
5631875000.0 0.8481833287562773 -0.44906338790318506 -1.8661559665213339 0.9761819050073954 0.032173647724866965 0.050262210594451816 0.7942815645574084 -0.2906957330914569
5669062500.0 0.8442227095417135 -0.45349927177131283 -1.887976253892779 0.9997066971722119 0.03265395547735818 0.05055455899703481 0.7908080402049877 -0.2935414919213001
5706250000.0 0.8419445177564016 -0.4569713372260158 -1.9098560499876511 1.0128776029475501 0.03285185796640539 0.0504127916355851 0.787304905436115 -0.2940847680161638
5743437500.0 0.8396820588886826 -0.4596797659916071 -1.9049874619029077 1.0171687960242002 0.03349927158593763 0.0506838303282407 0.7830803252787987 -0.295989156617509
5780625000.0 0.8380824787988468 -0.461235707558268 -1.8930503838382666 1.022546628774251 0.03365923617162641 0.05089151464366829 0.7804545639686159 -0.29757046118701136
5817812500.0 0.836490661246916 -0.4632160577141372 -1.8770081146850153 1.0190528274937982 0.03435456701594567 0.05122602544456497 0.7756814793608258 -0.2982610682212904
5855000000.0 0.835882086391452 -0.46497278315453283 -1.8602825902791102 1.0222367556603023 0.03448298535927591 0.05162502276898893 0.7688084098981884 -0.29969416937350624
5892187500.0 0.834041384126093 -0.4666306967493833 -1.8453643873447987 1.0212713708343655 0.03507482767494135 0.051680161629736446 0.7648023539765972 -0.30118574945053744
5929375000.0 0.8323193113718226 -0.4682775312046367 -1.833428488316022 1.023450322362197 0.035332649381793646 0.05209477584011354 0.7652782775194791 -0.30232008745894057
5966562500.0 0.8327239967529232 -0.46817054935885183 -1.7807508101176261 1.0061515571093786 0.03555345945995903 0.05195065652310158 0.7655284517989319 -0.3028473365470498
6003750000.0 0.8292730553143218 -0.4721163688687765 -1.824712840892459 1.0282579629925748 0.03541453359865558 0.05152435809951668 0.7820055146712253 -0.3021337230711916
6040937500.0 0.8247227180253835 -0.47712080091925557 -1.8460438108561772 1.0529765380895106 0.03610912783241271 0.051896288410789304 0.7772048916344542 -0.3046435878398386
6078125000.0 0.823090964125832 -0.47921465852666156 -1.8670575492413193 1.0625373727282033 0.035992891823938195 0.05192365635545298 0.7750897502793554 -0.30579868117600484
6115312500.0 0.8199448039068651 -0.4823188660083936 -1.8573452330322837 1.0701582977026436 0.03642835954998023 0.05225716814477397 0.7704605351977455 -0.3074319165323472
6152500000.0 0.8187025631924463 -0.48392668430256025 -1.8436760100503662 1.0700982774836794 0.03694564556960765 0.05262965673553752 0.7673835574394205 -0.3087555454562064
6189687500.0 0.8173748624421084 -0.4854659358120469 -1.8285897391433297 1.06936044282003 0.03729694526402648 0.05252511527631193 0.7622270509100949 -0.31031785701607223
6226875000.0 0.8157599827978719 -0.4871992941076443 -1.8113445451539576 1.070524199936445 0.037982880765378216 0.052788952838419646 0.75527807725636 -0.3113813717744424
6264062500.0 0.8140002083358633 -0.4885848125179908 -1.79713746277148 1.0681043502604974 0.038395388195288344 0.05300383808319649 0.7521721844950143 -0.31224537737628877
6301250000.0 0.8130576540127533 -0.4900918500575301 -1.783469882322621 1.069742084570158 0.038742695024504954 0.05315662049898652 0.7523003850125181 -0.3136448007816331
6338437500.0 0.8134437329146955 -0.4891812196362474 -1.7293967137619761 1.048189095209933 0.03878777668853075 0.053143149907621735 0.7534678379548732 -0.31352700333509215
6375625000.0 0.8128736533663525 -0.4897490071389761 -1.6931524295102993 1.0343413027101547 0.03913835692347667 0.05334017224467704 0.7536677817792379 -0.31473236015508715
6412812500.0 0.8118142557050538 -0.4913514692552381 -1.6837675816487059 1.038442803166582 0.039362762386078644 0.05316606838405465 0.7546801880769407 -0.31564004721973515
6450000000.0 0.8083117828288786 -0.49458479361121027 -1.704224467441176 1.05383132911177 0.03978242322985063 0.05337664325211588 0.7542053601426391 -0.3163676378559149
6487187500.0 0.8053047304892678 -0.49831316153137273 -1.720719651498148 1.071334137737415 0.03981783182873942 0.05336780993312793 0.7591188805146776 -0.3177130519939746
6524375000.0 0.802660968218835 -0.5015204269951263 -1.736174177118551 1.0859785796615646 0.04008679262468579 0.05349635822631985 0.7628638518409769 -0.31823987017752586
6561562500.0 0.79997358329018 -0.5041971448294027 -1.7472070414456375 1.0992713786421833 0.04016508700688866 0.05354018117213083 0.7636004198186893 -0.31964609538555766
6598750000.0 0.7962425189431663 -0.5077912997308672 -1.756036596102534 1.1093221901678896 0.040767363384299024 0.053537380473090306 0.7608439796214268 -0.32060211883386525
6635937500.0 0.7920315656300324 -0.5118169961258275 -1.7888253883667957 1.1386934713668238 0.041124434618946694 0.053839423111665605 0.7558151579661698 -0.3235610294308274
6673125000.0 0.7892019879090798 -0.5138934288674579 -1.7861401437359066 1.1382772379018693 0.04154007089480417 0.05374815042459816 0.752733106849412 -0.3238199909191802
6710312500.0 0.7874803205434797 -0.5160228065698282 -1.7790925431715228 1.1466113393129103 0.041834911456154054 0.053939716818900335 0.7488235839829697 -0.3250730647870608
6747500000.0 0.7858338252617806 -0.517270692002525 -1.7627398471381113 1.1443112780096312 0.04240508179967729 0.0540978565076323 0.7458204304952076 -0.326199951660734
6784687500.0 0.7844360791817075 -0.5188484043856147 -1.744332779265973 1.1422130822391017 0.04324393204297571 0.05422283301549833 0.7375946614565879 -0.3274812127567772
6821875000.0 0.7832706724173851 -0.5200039452758354 -1.7323185320573238 1.1400894491040772 0.04360747920402045 0.05431150911125352 0.7331164758089471 -0.32789147073517544
6859062500.0 0.7810735625465335 -0.5210983821244607 -1.7160263934156728 1.1410396007780876 0.0438610599804317 0.05435173469760827 0.7313331569499282 -0.329170550066463
6896250000.0 0.7810460399859287 -0.5215837171414586 -1.6870778255795047 1.1287033372152748 0.044205995939790986 0.05447236117806985 0.7329739617215485 -0.32940179109755785
6933437500.0 0.7816599109147389 -0.5201425786823304 -1.6378879038214333 1.1054351934917053 0.04435332608108836 0.05440827190323387 0.7337345896893355 -0.3299061549689939
6970625000.0 0.781040464172179 -0.5205439442349591 -1.611701470352755 1.098263017897714 0.04443274957295636 0.05428738473914378 0.7340706243732268 -0.3305765787728412
7007812500.0 0.778637737755844 -0.5232933587209614 -1.6217579229615775 1.1077359886247884 0.044712684679776175 0.05419236061285168 0.7348955870773473 -0.3314141343524589
7045000000.0 0.7748822823340895 -0.5264716338768354 -1.6402828748099534 1.1269474303939633 0.04497951768940963 0.054229084105797694 0.7356421979911483 -0.33196273775192275
7082187500.0 0.7717781143985245 -0.5299969355736607 -1.6554787880359814 1.1440694471177288 0.04498382305657557 0.05414340138413501 0.7419046825895939 -0.3325214357687686
7119375000.0 0.7696137207527788 -0.5324793265128607 -1.6683846883187359 1.157882496294501 0.04499793512561786 0.05428882749755707 0.7442940393447808 -0.33336097402026577
7156562500.0 0.7665692301425093 -0.5350488285033352 -1.6725225474471115 1.1639959113422704 0.045365829205714976 0.05432349858588454 0.7442913468641217 -0.3350007472249851
