! Created with skrf 1.8.0 (http://scikit-rf.org).
# Hz S RI R 50.0 
!freq ReS11 ImS11 ReS21 ImS21 ReS12 ImS12 ReS22 ImS22
500000000.0 -0.5598784854702773 -0.7196432693997727 -6.583926787227014 17.401430196426467 0.020669446304635443 0.008126873315503798 -0.0871619587953942 -0.3078852257998638
550000000.0 -0.6119547615898105 -0.6768394916122114 -5.325704446376703 16.358035164653266 0.021374795738309138 0.007304904489846258 -0.1062143186477402 -0.2988471971618079
600000000.0 -0.6541512825637126 -0.6369789638933027 -4.307604288708209 15.386169152671513 0.021935643109619336 0.006525899381256662 -0.12194028094547071 -0.2908023624810386
650000000.0 -0.6886846512497743 -0.600231388919909 -3.475852255788275 14.48996008897762 0.02238365697427998 0.005792361802848694 -0.1351064236177667 -0.28380726834156444
700000000.0 -0.7172246792386274 -0.5665233026368499 -2.789937828996494 13.667637059502741 0.022742704240292615 0.005103323628521575 -0.14628994693367128 -0.27783430723936314
750000000.0 -0.7410342813121223 -0.5356656056757965 -2.2192205236569924 12.914623910773388 0.02303084676446734 0.004456164907646914 -0.15592710959208467 -0.2728158741044575
800000000.0 -0.7610751259626618 -0.5074226053622917 -1.7403670622158853 12.225214036310556 0.02326184919411487 0.0038475991860764842 -0.1643498089568865 -0.26866827248146663
850000000.0 -0.7780855256717776 -0.48154855273399616 -1.3354619469322566 11.593456667976275 0.02344629059345426 0.0032741948995230518 -0.17181255022526215 -0.26530436670628976
900000000.0 -0.7926373436975003 -0.45780619148891644 -0.9906270438454641 11.013606819021264 0.023592376576937447 0.002732640034010902 -0.17851215077449656 -0.26264000613121297
950000000.0 -0.8051775243264682 -0.4359754165893662 -0.6950141662662159 10.480335310979797 0.02370653197581657 0.002219865629372971 -0.1846021209204844 -0.2605970249967921
1000000000.0 -0.8160585017299617 -0.4158565643433919 -0.44006743792525604 9.98880857323029 0.023793834770112758 0.0017330926641586368 -0.1902031943030883 -0.2591043834928576
1050000000.0 -0.825560594941342 -0.3972708608606753 -0.2189800546118148 9.534699511958214 0.02385833563874279 0.0012698383875653558 -0.1954110837746112 -0.2580983248702828
1100000000.0 -0.8339086195856735 -0.3800594382879303 -0.02629133432408004 9.114163637408298 0.02390329496500996 0.0008279022143916491 -0.20030223507597483 -0.25752203656561773
1150000000.0 -0.8412843073585252 -0.3640816994181163 0.1424145379963515 8.723799384831219 0.02393136000541339 0.00040534232423515126 -0.2049381291299372 -0.25732508559349554
1200000000.0 -0.8478356676294662 -0.34921345625976186 0.290735588498237 8.360602952896793 0.023944698412601863 4.4903924688191686e-07 -0.20936852568673858 -0.25746277555235175
1250000000.0 -0.8536841025248081 -0.3353450675787854 0.42162463684911655 8.02192311785815 0.023945099692917957 -0.00038828180800083104 -0.21363392922275296 -0.2578955031462879
1300000000.0 -0.8589298588417551 -0.32237968749256585 0.537521533843528 7.70541874220417 0.023934052924664478 -0.0007621739167919498 -0.21776747905599955 -0.25858815302344507
1350000000.0 -0.8636562389211537 -0.3102316742280685 0.6404552940953843 7.409020169284829 0.02391280676248034 -0.0011223932697711136 -0.221796409813403 -0.25950954794028563
1400000000.0 -0.8679328781220884 -0.29882517375418205 0.7321235865140672 7.130894860556501 0.02388241611865545 -0.0014699683836537037 -0.22574318876399485 -0.26063195933643857
1450000000.0 -0.871818314784983 -0.2880928748869956 0.8139550621262164 6.869417193089539 0.02384377874590922 -0.0018058081077517195 -0.2296264082099922 -0.2619306771495054
1500000000.0 -0.8753620198043104 -0.2779749236155938 0.887158573236934 6.623142120052079 0.023797664107044945 -0.002130717145207635 -0.23346149079267575 -0.26338363462596137
1550000000.0 -0.8786060103947279 -0.26841798071928047 0.9527623060742814 6.390782307762126 0.02374473630987345 -0.002445409524319181 -0.23726125083946886 -0.2649710826140726
1600000000.0 -0.8815861416201182 -0.25937440589963134 1.011645096739665 6.171188342350087 0.023685572443165645 -0.002750520259477811 -0.2410363441406578 -0.26667530753299806
1650000000.0 -0.8843331464766885 -0.2508015522781066 1.064561647730318 5.963331614293862 0.023620677324293154 -0.003046615432297342 -0.24479563065724924 -0.2684803874296219
1700000000.0 -0.8868734784697402 -0.24266115644133857 1.1121629534945332 5.766289521305291 0.023550495428516678 -0.0033342009044726884 -0.24854646883254544 -0.2703719809920326
1750000000.0 -0.889229998066243 -0.23491881081301802 1.1550129389202453 5.579232668927466 0.023475420590972622 -0.003613729851232928 -0.25229495582331496 -0.2723371449498032
1800000000.0 -0.8914225349838316 -0.22754350676771512 1.1936020860448013 5.401413787737396 0.0233958039375761 -0.003885609280785198 -0.2560461247145922 -0.27436417584898765
1850000000.0 -0.8934683511574355 -0.22050723844623166 1.2283586516277896 5.232158123622965 0.02331196039969271 -0.004150205683223997 -0.25980410731043807 -0.2764424727318371
1900000000.0 -0.8953825238113283 -0.21378465863717205 1.2596579468712017 5.070855091615096 0.023224174089994935 -0.004407849932255742 -0.2635722692235343 -0.2785624177332233
1950000000.0 -0.897178263920155 -0.2073527793305695 1.2878300500646274 4.91695101390929 0.023132702757869727 -0.00465884154543306 -0.2673533225488155 -0.2807152720387801
2000000000.0 -0.8988671821510191 -0.2011907106310647 1.313166245508469 4.769942788926826 0.023037781497132256 -0.004903452393158864 -0.27114942030316536 -0.2828930850235623
2050000000.0 -0.9004595119062823 -0.19527943264964776 1.3359244220761943 4.629372360849522 0.02293962584346748 -0.005141929933389175 -0.2749622359584029 -0.28508861471119734
2100000000.0 -0.9019642971595829 -0.1896015957889133 1.3563336180483276 4.494821878396245 0.022838434371573565 -0.005374500037666676 -0.27879303072589134 -0.28729525797170025
2150000000.0 -0.903389551268008 -0.18414134551537176 1.3745978622128638 4.365909448044825 0.022734390880358953 -0.00560136946439004 -0.2826427107306826 -0.2895069891090655
2200000000.0 -0.9047423917537042 -0.17888416828748774 1.3908994323870825 4.242285400883005 0.022627666237635426 -0.005822728027073232 -0.286511875799219 -0.2917183056915714
2250000000.0 -0.9060291551068379 -0.173816755796909 1.4054016296486396 4.123629004085029 0.022518419942174094 -0.006038750498299056 -0.2904008612625293 -0.29392418064320747
2300000000.0 -0.9072554949118881 -0.16892688509273224 1.4182511484056113 4.00964555806443 0.02240680145042574 -0.006249598284276644 -0.2943097739134461 -0.29612001976199565
2350000000.0 -0.9084264660005545 -0.16420331250968798 1.4295801078752355 3.900063828818846 0.02229295130649797 -0.006455420899816552 -0.2982385230535102 -0.29830162394802
2400000000.0 -0.9095465968527873 -0.15963567961702754 1.4395077988838936 3.794633772204183 0.02217700210723001 -0.00665635726939031 -0.302186847395121 -0.30046515553048253
2450000000.0 -0.910619952079356 -0.15521442965701146 1.4481421904686222 3.6931245129665817 0.022059079328579784 -0.006852536876306978 -0.3061543384524391 -0.30260710816822284
2500000000.0 -0.9116501865048713 -0.15093073315568564 1.455581233123014 3.595322546541728 0.021939302035014333 -0.007044080778962424 -0.3101404609465366 -0.3047242798714001
2550000000.0 -0.9126405921137797 -0.14677642156986334 1.4619139893337598 3.501030136055121 0.02181778349002346 -0.007231102510600235 -0.3141445706592759 -0.30681374875773726
2600000000.0 -0.9135941389132985 -0.14274392798965777 1.4672216169610128 3.4100638806906276 0.02169463168275759 -0.0074137088767099735 -0.3181659301019102 -0.30887285120638164
2650000000.0 -0.9145135105952673 -0.13882623404725966 1.4715782268754345 3.3222534348175463 0.021569949783454473 -0.007592000662404964 -0.3222037223016976 -0.3108991621221245
2700000000.0 -0.9154011357381048 -0.13501682229584416 1.4750516328293768 3.237440359992579 0.02144383653823325 -0.0077660732604529015 -0.3262570629631966 -0.3128904770593611
2750000000.0 -0.916259215173761 -0.13130963341932458 1.477704008703606 3.155477094288595 0.021316386612102542 -0.007936017229197907 -0.33032501122247826 -0.3148447959868475
2800000000.0 -0.9170897460472645 -0.1276990277156731 1.479592465953045 3.076226025435898 0.02118769088780905 -0.008101918788579692 -0.33440657917438066 -0.31676030850818127
2850000000.0 -0.917894543016922 -0.1241797503685851 1.4807695620966954 2.999558655963299 0.021057836726819316 -0.008263860261265394 -0.3385007403306051 -0.3186353803716766
2900000000.0 -0.9186752569757287 -0.12074690008296922 1.4812837494908442 2.9253548500289037 0.02092690819788059 -0.008421920465149687 -0.34260643714017713 -0.3204685411282195
2950000000.0 -0.919433391618866 -0.1173959007129207 1.4811797722490372 2.8535021529038582 0.0207949862777215 -0.008576175062626062 -0.3467225876865746 -0.32225847281105324
3000000000.0 -0.9201703181345086 -0.1141224755560373 1.4804990180513167 2.783895175194129 0.020662149027885036 -0.008726696871514918 -0.35084809165678443 -0.3240039995314834
3050000000.0 -0.9208872882565337 -0.1109226240282257 1.4792798305899415 2.716435034822512 0.020528471750938606 -0.008873556141745613 -0.3549818356690091 -0.3257040778908172
3100000000.0 -0.9215854458831102 -0.10779260046650849 1.4775577876265362 2.6510288506528927 0.020394027129031305 -0.009016820801651143 -0.3591226980281817 -0.3273577881292618
3150000000.0 -0.9222658374379756 -0.10472889483801134 1.4753659489107898 2.5875892823364657 0.020258885347162133 -0.009156556677057028 -0.3632695529747474 -0.32896432593427605
3200000000.0 -0.9229294211261676 -0.1017282151584693 1.4727350776609232 2.526034111612264 0.02012311420335149 -0.009292827686193604 -0.3674212744785892 -0.33052299484722847
3250000000.0 -0.9235770752164463 -0.0987874714468693 1.4696938387794596 2.4662858608240406 0.019986779207454383 -0.009425696012925436 -0.37157673962781723 -0.3320331992080566
3300000000.0 -0.9242096054644349 -0.09590376106208097 1.4662689765801438 2.4082714449112386 0.019849943670230748 -0.009555222260682884 -0.3757348316523378 -0.3334944375901028
3350000000.0 -0.9248277517761915 -0.0930743552849613 1.4624854744198255 2.3519218535416613 0.019712668783981015 -0.009681465589086214 -0.37989444261967176 -0.3349062966786167
3400000000.0 -0.9254321941987653 -0.09029668702439721 1.458366698330667 2.2971718604266838 0.01957501369591515 -0.009804483835117565 -0.3840544758349169 -0.33626844555425117
3450000000.0 -0.9260235583134321 -0.08756833953907055 1.453934526478038 2.2439597571838807 0.019437035575264477 -0.009924333620474431 -0.388213847972919 -0.33758063034651675
3500000000.0 -0.9266024200978522 -0.08488703607847463 1.449209466039088 2.1922271093942 0.019298789674990456 -0.010041070446561764 -0.3923714909680492 -0.33884266922594414
3550000000.0 -0.9271693103154066 -0.08225063035708788 1.444210758893547 2.1419185327506116 0.019160329388810092 -0.010154748778383377 -0.39652635368472733 -0.3400544477056721
3600000000.0 -0.9277247184823234 -0.07965709778438726 1.4389564773658436 2.0929814874253063 0.01902170630424617 -0.010265422118604121 -0.4006774033866762 -0.3412159142309863
3650000000.0 -0.9282690964580618 -0.07710452738195984 1.433463611077818 2.0453660889624334 0.01888297025216274 -0.010373143072689944 -0.40482362702561714 -0.34232707602998347
3700000000.0 -0.9288028616980339 -0.07459111432546954 1.4277481458777042 1.9990249341948023 0.01874416935335369 -0.01047796340620085 -0.40896403236276424 -0.34338799520978497
3750000000.0 -0.9293264002039875 -0.07211515305602559 1.421825135670367 1.9539129408220823 0.018605350062536573 -0.010579934094990995 -0.413097648939358 -0.3443987850774869
3800000000.0 -0.9298400692029054 -0.06967503091084729 1.4157087678911262 1.9099871994317006 0.01846655721012246 -0.01067910536910236 -0.41722352890880776 -0.3453596066706116
3850000000.0 -0.9303441995817993 -0.06726922222810697 1.4094124232785845 1.8672068368646024 0.018327834042079213 -0.010775526751051466 -0.4213407477419487 -0.34627066548301255
3900000000.0 -0.9308390981028247 -0.06489628288533558 1.4029487305235016 1.8255328899336474 0.018189222258135462 -0.010869247089107047 -0.42544840481651075 -0.3471322083725511
3950000000.0 -0.9313250494203742 -0.06255484523466134 1.3963296163076278 1.7849281886003174 0.018050762048553864 -0.010960314586113093 -0.4295456239005362 -0.3479445206387024
4000000000.0 -0.9318023179195353 -0.06024361340173007 1.3895663511865692 1.7453572478001718 0.017912492129650587 -0.011048776824334167 -0.4336315535390715 -0.34870792325853317
4050000000.0 -0.9322711493928157 -0.05796135891813298 1.3826695917322966 1.7067861671888256 0.017774449778269582 -0.011134680786856428 -0.43770536735095855 -0.3494227702738596
4100000000.0 -0.9327317725711326 -0.05570691666033145 1.375649419278342 1.669182538138965 0.017636670865262966 -0.011218072875779275 -0.4417662642458797 -0.3500894463152616
4150000000.0 -0.9331844005219664 -0.05347918107006064 1.368515375617246 1.63251535739664 0.017499189888216034 -0.011298998927802548 -0.44581346856483756 -0.350708364262272
4200000000.0 -0.9336292319278955 -0.051277102634067206 1.3612764959113455 1.5967549468416 0.017362040003390995 -0.011377504227291283 -0.4498462301542465 -0.35127996302442877
4250000000.0 -0.9340664522560121 -0.04909968460255956 1.3539413390922395 1.561872878862017 0.01722525305705201 -0.0114536335172695 -0.4538638243770413 -0.3518047054411276
4300000000.0 -0.9344962348282219 -0.046945979927814935 1.3465180159784025 1.5278419068915192 0.017088859616229482 -0.011527431008597457 -0.4578655520664947 -0.3522830762935146
4350000000.0 -0.9349187418017031 -0.044815088406079034 1.3390142153075384 1.4946359006947287 0.016952888998937717 -0.01159894038747281 -0.46185073942916266 -0.3527155804193325
4400000000.0 -0.9353341250672101 -0.042706154007188524 1.3314372278816815 1.4622297860305773 0.016817369303940725 -0.011668204821582298 -0.46581873789996553 -0.35310274092878335
4450000000.0 -0.935742527072658 -0.040618362377836614 1.3237939689863767 1.4305994883500117 0.016682327440081274 -0.011735266965046386 -0.46976892395451997 -0.3534450975145984
4500000000.0 -0.9361440815785746 -0.03855093850556046 1.3160909992342882 1.399721880216364 0.01654778915520136 -0.011800168962325577 -0.4737006988826795 -0.3537432048515315
4550000000.0 -0.9365389143513531 -0.03650314453162834 1.3083345439683607 1.3695747321632328 0.016413779064675973 -0.01186295245124459 -0.4776134885270672 -0.35399763108070614
4600000000.0 -0.9369271437995064 -0.03447427770194883 1.3005305113521097 1.340136666730354 0.01628032067959896 -0.0119236585653264 -0.4815067429893752 -0.3542089563763655
4650000000.0 -0.9373088815580495 -0.03246366844611556 1.2926845092495551 1.3113871154370955 0.016147436434603552 -0.011982327935481799 -0.4853799363085736 -0.35437777158871897
4700000000.0 -0.9376842330253686 -0.030470678575446608 1.2848018609959844 1.2833062784751839 0.016015147715333602 -0.012039000691183917 -0.48923256611388355 -0.35450467695962024
4750000000.0 -0.938053297856374 -0.028494699591593065 1.2768876201567438 1.2558750869215802 0.015883474885594544 -0.012093716461294047 -0.4930641532543758 -0.3545902809099057
4800000000.0 -0.9384161704158785 -0.02653515109805432 1.2689465843461816 1.2290751672855063 0.01575243731415423 -0.012146514374534111 -0.49687424140900605 -0.35463519889207823
4850000000.0 -0.9387729401953012 -0.024591479307457753 1.2609833081880875 1.2028888082220326 0.015622053401219752 -0.012197433059755838 -0.5006623966785393 -0.35464005230758744
4900000000.0 -0.9391236921958562 -0.022663155638079857 1.2530021154801512 1.1772989292558633 0.015492340604570392 -0.012246510646027766 -0.5044282071622733 -0.35460546748428556
4950000000.0 -0.9394685072809659 -0.02074967539356176 1.2450071106243863 1.152289051372904 0.015363315465350687 -0.01229378476261005 -0.5081712825213999 -0.35453207471153714
5000000000.0 -0.93980746250032 -0.018850556520238704 1.237002189381677 1.1278432693480571 0.015234993633526824 -0.012339292538898686 -0.511891253530793 -0.35442050733124725
5050000000.0 -0.9401406313879695 -0.016965338436943644 1.2289910489985394 1.103946225688111 0.015107389892990937 -0.012383070604358839 -0.5155877716211641 -0.3542714008814748
5100000000.0 -0.9404680842365558 -0.015093580932512896 1.2209771977517039 1.0805830860776635 0.014980518186312564 -0.012425155088482263 -0.5192605084134368 -0.3540853922900726
5150000000.0 -0.9407898883495691 -0.01323486312659361 1.2129639639538923 1.0577395162255052 0.014854391639129504 -0.012465581620818952 -0.5229091552466537 -0.3538631191165137
5200000000.0 -0.9411061082733061 -0.011388782489657134 1.204954504461543 1.035401660016372 0.01472902258418304 -0.012504385331139276 -0.5265334227006554 -0.35360521884058294
5250000000.0 -0.9414168060104294 -0.009554953918449294 1.1969518127109204 1.0135561188796527 0.014604422584965637 -0.012541600849652198 -0.5301330401157717 -0.3533123281927828
5300000000.0 -0.9417220412161825 -0.0077330088633514316 1.188958726327513 0.9921899322947816 0.014480602459010224 -0.012577262307450378 -0.5337077551094285 -0.3529850825289905
5350000000.0 -0.9420218713790439 -0.005922594504395806 1.1809779343252556 0.9712905593575003 0.014357572300782724 -0.012611403337045142 -0.5372573330921133 -0.3526241152428548
5400000000.0 -0.9423163519867279 -0.004123372972909323 1.1730119839327637 0.9508458613380225 0.014235341504195732 -0.012644057073131598 -0.5407815567827591 -0.3522300572177628
5450000000.0 -0.9426055366788373 -0.0023350206159672426 1.1650632870664153 0.9308440851665556 0.014113918784729201 -0.012675256153531156 -0.5442802257249815 -0.35180353631486616
5500000000.0 -0.9428894773872937 -0.0005572273010254758 1.1571341264708053 0.911273847786621 0.013993312201146808 -0.012705032720294643 -0.5477531558052804 -0.3513451768946063
5550000000.0 -0.9431682244652635 0.0012103042416882204 1.1492266615551423 0.892124121321008 0.013873529176820311 -0.012733418421065953 -0.551200178773315 -0.3508555993729702
5600000000.0 -0.9434418268057589 0.002967859041324239 1.1413429339360157 0.8733842189991226 0.013754576520640632 -0.012760444410599698 -0.554621141765795 -0.35033541980760546
5650000000.0 -0.9437103319504705 0.0047157104751971435 1.1334848727123368 0.8550437817981176 0.013636460447528233 -0.012786141352534953 -0.5580159068339614 -0.3497852495153258
5700000000.0 -0.9439737861897673 0.006454120826206555 1.1256542994831953 0.8370927657536198 0.013519186598529132 -0.012810539421354974 -0.5613843504758016 -0.34920569471742735
5750000000.0 -0.9442322346545708 0.008183341810735434 1.117852933123921 0.8195214298992128 0.013402760060493221 -0.012833668304532257 -0.5647263631735268 -0.34859735621145044
5800000000.0 -0.9444857214004629 0.00990361507873494 1.11008239434222 0.8023203247961782 0.013287185385352757 -0.012855557204958073 -0.5680418489361196 -0.3479608290711232
5850000000.0 -0.9447342894851133 0.01161517268764467 1.1023442100130487 0.7854802816184817 0.01317246660896601 -0.012876234843466132 -0.5713307248487209 -0.3472967023676187
5900000000.0 -0.9449779810390094 0.013318237551609435 1.0946398173210286 0.768992401759402 0.013058607269562955 -0.012895729461665641 -0.5745929206277406 -0.34660555891746897
5950000000.0 -0.9452168373304274 0.015013023867448183 1.0869705677080983 0.7528480469294998 0.012945610425765378 -0.012914068824902085 -0.577828378183281 -0.34588797505066715
6000000000.0 -0.945450898824935 0.016699737518678814 1.0793377306428082 0.7370388297171473 0.012833478674194529 -0.012931280225416515 -0.5810370511886366 -0.34514452040017496
6050000000.0 -0.9456802052398074 0.018378576458832785 1.0717424972216136 0.7215566045846663 0.012722214166664761 -0.012947390485708268 -0.5842189046571328 -0.3443757577120566
6100000000.0 -0.9459047955938378 0.02004973107522437 1.064185983608985 0.7063934592753927 0.012611818626967211 -0.012962425962063623 -0.5873739145267115 -0.34358224267432613
6150000000.0 -0.9461247082528794 0.021713384534273752 1.0566692343254624 0.6915417066082972 0.012502293367240042 -0.012976412548255198 -0.590502067252421 -0.3427645237637905
