
!Correction: S11(Full 2 Port(1,2)) 
!S21(Full 2 Port(1,2)) 
!S12(Full 2 Port(1,2)) 
!S22(Full 2 Port(1,2)) 
!S2P File: Measurements: S11, S21, S12, S22:
# Hz S  RI   R 50
2136250000 7.349472e-001 -2.005275e-001 1.522948e-002 5.332882e-003 1.520091e-002 5.125368e-003 7.480141e-001 -1.988418e-001
2173437500 7.311630e-001 -2.011012e-001 1.523469e-002 5.246308e-003 1.529578e-002 5.163602e-003 7.446328e-001 -1.992818e-001
2210625000 7.282596e-001 -2.006466e-001 1.525120e-002 5.056019e-003 1.524115e-002 5.147914e-003 7.413138e-001 -1.991972e-001
2247812500 7.251953e-001 -2.001824e-001 1.527413e-002 5.073390e-003 1.514986e-002 5.069535e-003 7.383156e-001 -1.990600e-001
2285000000 7.225282e-001 -2.002750e-001 1.527323e-002 5.083157e-003 1.517832e-002 4.997757e-003 7.353939e-001 -1.986102e-001
2322187500 7.201501e-001 -1.990748e-001 1.529289e-002 5.095568e-003 1.528757e-002 5.032406e-003 7.332568e-001 -1.982206e-001
2359375000 7.178518e-001 -1.982654e-001 1.528977e-002 4.995597e-003 1.536166e-002 5.094877e-003 7.308554e-001 -1.977520e-001
2396562500 7.156137e-001 -1.982891e-001 1.537174e-002 4.962689e-003 1.540258e-002 4.884023e-003 7.285145e-001 -1.971408e-001
2433750000 7.137993e-001 -1.972428e-001 1.535093e-002 4.956669e-003 1.548011e-002 5.122502e-003 7.267957e-001 -1.963785e-001
2470937500 7.116717e-001 -1.967073e-001 1.540195e-002 4.976065e-003 1.533705e-002 4.947902e-003 7.248209e-001 -1.961571e-001
2508125000 7.096713e-001 -1.954798e-001 1.536825e-002 4.965438e-003 1.537178e-002 4.949790e-003 7.229851e-001 -1.953631e-001
2545312500 7.085985e-001 -1.944957e-001 1.540384e-002 4.847963e-003 1.529064e-002 4.889464e-003 7.214037e-001 -1.942394e-001
2582500000 7.082468e-001 -1.933600e-001 1.539680e-002 5.073559e-003 1.525733e-002 5.035958e-003 7.212057e-001 -1.932548e-001
2619687500 7.090964e-001 -1.935911e-001 1.539993e-002 5.030876e-003 1.538489e-002 5.116307e-003 7.220826e-001 -1.929415e-001
2656875000 7.089193e-001 -1.966078e-001 1.559420e-002 5.048212e-003 1.558559e-002 5.092957e-003 7.221021e-001 -1.955882e-001
2694062500 7.061579e-001 -1.984609e-001 1.577331e-002 5.019320e-003 1.569581e-002 5.017777e-003 7.194666e-001 -1.979028e-001
2731250000 7.028733e-001 -1.993441e-001 1.575707e-002 4.898341e-003 1.571672e-002 4.919490e-003 7.159629e-001 -1.986614e-001
2768437500 7.001966e-001 -1.986536e-001 1.580508e-002 4.867992e-003 1.574411e-002 4.826454e-003 7.132686e-001 -1.987179e-001
2805625000 6.977220e-001 -1.984205e-001 1.586056e-002 4.851195e-003 1.595055e-002 4.774580e-003 7.108025e-001 -1.981655e-001
2842812500 6.958781e-001 -1.978511e-001 1.593443e-002 4.662732e-003 1.573385e-002 4.545954e-003 7.087960e-001 -1.974726e-001
2880000000 6.938208e-001 -1.975496e-001 1.598318e-002 4.535018e-003 1.587879e-002 4.555500e-003 7.073646e-001 -1.971777e-001
2917187500 6.920786e-001 -1.967803e-001 1.579999e-002 4.416972e-003 1.591189e-002 4.463759e-003 7.055150e-001 -1.966241e-001
2954375000 6.908399e-001 -1.962273e-001 1.585776e-002 4.466457e-003 1.585817e-002 4.440135e-003 7.045239e-001 -1.960444e-001
2991562500 6.895871e-001 -1.954590e-001 1.571372e-002 4.469365e-003 1.580995e-002 4.391617e-003 7.028676e-001 -1.958298e-001
3028750000 6.882773e-001 -1.946752e-001 1.589353e-002 4.288408e-003 1.567848e-002 4.313095e-003 7.016320e-001 -1.952490e-001
3065937500 6.880149e-001 -1.946301e-001 1.586388e-002 4.418595e-003 1.581282e-002 4.278123e-003 7.004834e-001 -1.945453e-001
3103125000 6.874511e-001 -1.943911e-001 1.589190e-002 4.383874e-003 1.580855e-002 4.325514e-003 7.002620e-001 -1.947500e-001
3140312500 6.871191e-001 -1.950139e-001 1.588152e-002 4.253258e-003 1.594211e-002 4.314626e-003 6.997748e-001 -1.948070e-001
3177500000 6.864974e-001 -1.959802e-001 1.601243e-002 4.335870e-003 1.585141e-002 4.167534e-003 6.995043e-001 -1.955737e-001
3214687500 6.854678e-001 -1.971492e-001 1.596591e-002 4.122432e-003 1.593354e-002 4.085389e-003 6.984476e-001 -1.969886e-001
3251875000 6.833340e-001 -1.980847e-001 1.589710e-002 4.095316e-003 1.591476e-002 4.119571e-003 6.970931e-001 -1.980006e-001
3289062500 6.814266e-001 -1.984447e-001 1.581115e-002 3.916430e-003 1.594411e-002 3.980219e-003 6.949608e-001 -1.991067e-001
3326250000 6.789921e-001 -1.992257e-001 1.582020e-002 3.943006e-003 1.571157e-002 3.956934e-003 6.929018e-001 -1.993905e-001
3363437500 6.768382e-001 -1.992749e-001 1.576678e-002 3.863708e-003 1.568807e-002 4.001529e-003 6.907060e-001 -1.992511e-001
3400625000 6.748587e-001 -1.979488e-001 1.564270e-002 3.930411e-003 1.564107e-002 3.900112e-003 6.887404e-001 -1.987265e-001
3437812500 6.734585e-001 -1.972049e-001 1.550121e-002 3.861084e-003 1.550017e-002 3.866839e-003 6.870052e-001 -1.978108e-001
3475000000 6.726633e-001 -1.966191e-001 1.544251e-002 3.991637e-003 1.539368e-002 3.890703e-003 6.863373e-001 -1.971969e-001
3512187500 6.720368e-001 -1.960379e-001 1.550841e-002 3.964460e-003 1.536991e-002 3.956320e-003 6.855391e-001 -1.969248e-001
3549375000 6.717433e-001 -1.959113e-001 1.536244e-002 3.970566e-003 1.549406e-002 3.951116e-003 6.850724e-001 -1.969707e-001
3586562500 6.707084e-001 -1.966240e-001 1.545050e-002 4.063817e-003 1.550238e-002 4.078995e-003 6.843325e-001 -1.972533e-001
3623750000 6.698420e-001 -1.972549e-001 1.536320e-002 3.996296e-003 1.551135e-002 4.055755e-003 6.833685e-001 -1.976848e-001
3660937500 6.687610e-001 -1.973162e-001 1.549643e-002 4.067989e-003 1.540072e-002 4.115197e-003 6.823765e-001 -1.985656e-001
3698125000 6.675740e-001 -1.978675e-001 1.545003e-002 4.134852e-003 1.545807e-002 4.104578e-003 6.810865e-001 -1.989668e-001
3735312500 6.663748e-001 -1.983372e-001 1.550386e-002 4.155898e-003 1.550006e-002 4.098277e-003 6.797884e-001 -1.996310e-001
3772500000 6.652760e-001 -1.985895e-001 1.542760e-002 4.222136e-003 1.536615e-002 4.113148e-003 6.786101e-001 -1.998481e-001
3809687500 6.638679e-001 -1.987603e-001 1.553293e-002 4.128448e-003 1.546754e-002 4.070090e-003 6.770051e-001 -2.001816e-001
3846875000 6.622663e-001 -1.990246e-001 1.547270e-002 4.146213e-003 1.550361e-002 4.143355e-003 6.758427e-001 -2.007750e-001
3884062500 6.611205e-001 -1.990317e-001 1.542237e-002 4.088795e-003 1.551988e-002 4.092416e-003 6.744959e-001 -2.007621e-001
3921250000 6.598404e-001 -1.987638e-001 1.547092e-002 4.166716e-003 1.541179e-002 4.073746e-003 6.730094e-001 -2.005324e-001
3958437500 6.582553e-001 -1.986284e-001 1.552190e-002 4.163164e-003 1.539024e-002 4.130773e-003 6.718574e-001 -2.005296e-001
3995625000 6.569403e-001 -1.985205e-001 1.535229e-002 4.148549e-003 1.540976e-002 4.247030e-003 6.706227e-001 -2.002820e-001
4032812500 6.563205e-001 -1.979994e-001 1.546762e-002 4.129573e-003 1.527898e-002 4.126585e-003 6.698157e-001 -1.998225e-001
4070000000 6.555846e-001 -1.976433e-001 1.531675e-002 4.221798e-003 1.535404e-002 4.301223e-003 6.688814e-001 -1.998874e-001
4107187500 6.550136e-001 -1.981011e-001 1.544321e-002 4.298407e-003 1.536288e-002 4.216065e-003 6.685144e-001 -2.000293e-001
4144375000 6.539752e-001 -1.986040e-001 1.543977e-002 4.269558e-003 1.548549e-002 4.208764e-003 6.674206e-001 -2.006018e-001
4181562500 6.531554e-001 -1.988786e-001 1.548133e-002 4.303291e-003 1.549473e-002 4.331744e-003 6.664519e-001 -2.007996e-001
4218750000 6.520295e-001 -1.988323e-001 1.549802e-002 4.328664e-003 1.545298e-002 4.224909e-003 6.654533e-001 -2.011905e-001
4255937500 6.512902e-001 -1.992535e-001 1.553583e-002 4.258747e-003 1.551820e-002 4.356155e-003 6.645644e-001 -2.011836e-001
4293125000 6.498349e-001 -1.990698e-001 1.553618e-002 4.255344e-003 1.539494e-002 4.279308e-003 6.634486e-001 -2.019071e-001
4330312500 6.490231e-001 -1.994586e-001 1.556794e-002 4.242680e-003 1.540811e-002 4.344286e-003 6.623881e-001 -2.015837e-001
4367500000 6.480089e-001 -1.994814e-001 1.548939e-002 4.303887e-003 1.543157e-002 4.226787e-003 6.612845e-001 -2.017830e-001
4404687500 6.470455e-001 -1.996589e-001 1.553145e-002 4.263368e-003 1.546521e-002 4.207605e-003 6.601542e-001 -2.019541e-001
4441875000 6.460987e-001 -1.995895e-001 1.552519e-002 4.305599e-003 1.537489e-002 4.227424e-003 6.594276e-001 -2.017140e-001
4479062500 6.447668e-001 -1.994008e-001 1.551638e-002 4.276989e-003 1.554378e-002 4.256996e-003 6.580710e-001 -2.019432e-001
4516250000 6.438282e-001 -1.997327e-001 1.551838e-002 4.285883e-003 1.546913e-002 4.171341e-003 6.573641e-001 -2.021005e-001
4553437500 6.431378e-001 -1.994229e-001 1.547184e-002 4.249678e-003 1.552544e-002 4.292522e-003 6.561443e-001 -2.021887e-001
4590625000 6.424078e-001 -1.994047e-001 1.552762e-002 4.276590e-003 1.533594e-002 4.241642e-003 6.553294e-001 -2.022182e-001
4627812500 6.412649e-001 -1.997005e-001 1.541504e-002 4.305769e-003 1.536922e-002 4.257211e-003 6.546957e-001 -2.023195e-001
4665000000 6.408686e-001 -1.999969e-001 1.557869e-002 4.354214e-003 1.555311e-002 4.421327e-003 6.536251e-001 -2.021867e-001
4702187500 6.400414e-001 -1.995321e-001 1.550235e-002 4.261359e-003 1.545754e-002 4.188936e-003 6.532561e-001 -2.027437e-001
4739375000 6.387274e-001 -1.999242e-001 1.550940e-002 4.226818e-003 1.529432e-002 4.297366e-003 6.520835e-001 -2.031014e-001
4776562500 6.382162e-001 -2.000302e-001 1.547316e-002 4.291594e-003 1.545942e-002 4.220880e-003 6.512794e-001 -2.028762e-001
4813750000 6.373284e-001 -2.001678e-001 1.551085e-002 4.404393e-003 1.539895e-002 4.385471e-003 6.504714e-001 -2.031357e-001
4850937500 6.364633e-001 -2.004834e-001 1.543766e-002 4.227031e-003 1.544942e-002 4.292800e-003 6.496696e-001 -2.033944e-001
4888125000 6.354231e-001 -1.997137e-001 1.533912e-002 4.374888e-003 1.543694e-002 4.386892e-003 6.484854e-001 -2.032362e-001
4925312500 6.342350e-001 -1.998727e-001 1.556042e-002 4.367106e-003 1.546466e-002 4.380296e-003 6.481251e-001 -2.034290e-001
4962500000 6.335757e-001 -2.002509e-001 1.539051e-002 4.416494e-003 1.545188e-002 4.399594e-003 6.468247e-001 -2.034850e-001
4999687500 6.330857e-001 -2.002591e-001 1.544205e-002 4.413957e-003 1.539068e-002 4.439685e-003 6.463495e-001 -2.036115e-001
5036875000 6.321937e-001 -2.008747e-001 1.547286e-002 4.378317e-003 1.546126e-002 4.457508e-003 6.452458e-001 -2.037880e-001
5074062500 6.316218e-001 -2.005071e-001 1.533598e-002 4.408976e-003 1.543996e-002 4.340516e-003 6.444355e-001 -2.036887e-001
5111250000 6.307587e-001 -2.005438e-001 1.542674e-002 4.452471e-003 1.532363e-002 4.524316e-003 6.439337e-001 -2.037044e-001
5148437500 6.299072e-001 -2.007539e-001 1.543140e-002 4.429413e-003 1.532394e-002 4.439295e-003 6.431645e-001 -2.043628e-001
5185625000 6.293750e-001 -2.008118e-001 1.538101e-002 4.499724e-003 1.532751e-002 4.462326e-003 6.426032e-001 -2.043429e-001
5222812500 6.288297e-001 -2.011035e-001 1.543772e-002 4.499248e-003 1.537278e-002 4.506811e-003 6.418048e-001 -2.045552e-001
5260000000 6.277816e-001 -2.010961e-001 1.541382e-002 4.513007e-003 1.540527e-002 4.571525e-003 6.410409e-001 -2.046731e-001
5297187500 6.271574e-001 -2.013792e-001 1.533499e-002 4.485665e-003 1.533139e-002 4.537528e-003 6.402693e-001 -2.049392e-001
5334375000 6.266592e-001 -2.012833e-001 1.539736e-002 4.539132e-003 1.542437e-002 4.439027e-003 6.393466e-001 -2.050481e-001
5371562500 6.255559e-001 -2.016615e-001 1.531455e-002 4.573612e-003 1.526499e-002 4.587893e-003 6.387728e-001 -2.050294e-001
5408750000 6.247429e-001 -2.012896e-001 1.537729e-002 4.539356e-003 1.534168e-002 4.450180e-003 6.381180e-001 -2.049578e-001
5445937500 6.238351e-001 -2.017237e-001 1.534025e-002 4.556865e-003 1.532300e-002 4.574418e-003 6.371105e-001 -2.052754e-001
5483125000 6.234352e-001 -2.015588e-001 1.545964e-002 4.558948e-003 1.525162e-002 4.597860e-003 6.364362e-001 -2.052621e-001
5520312500 6.228758e-001 -2.016167e-001 1.543087e-002 4.625500e-003 1.536157e-002 4.617467e-003 6.359170e-001 -2.057471e-001
5557500000 6.224357e-001 -2.019487e-001 1.535379e-002 4.726965e-003 1.544739e-002 4.714889e-003 6.349794e-001 -2.058952e-001
5594687500 6.216844e-001 -2.016415e-001 1.544450e-002 4.679705e-003 1.540495e-002 4.735741e-003 6.342093e-001 -2.060107e-001
5631875000 6.210388e-001 -2.021297e-001 1.525322e-002 4.721241e-003 1.538984e-002 4.783321e-003 6.334984e-001 -2.061261e-001
5669062500 6.201292e-001 -2.024468e-001 1.538800e-002 4.687107e-003 1.531838e-002 4.637041e-003 6.327426e-001 -2.063469e-001
5706250000 6.198023e-001 -2.025267e-001 1.540060e-002 4.729873e-003 1.539110e-002 4.796546e-003 6.323568e-001 -2.068303e-001
5743437500 6.187164e-001 -2.027067e-001 1.525445e-002 4.755186e-003 1.528745e-002 4.815986e-003 6.316398e-001 -2.070208e-001
5780625000 6.182969e-001 -2.030694e-001 1.541277e-002 4.752141e-003 1.528728e-002 4.780362e-003 6.309109e-001 -2.073210e-001
5817812500 6.177869e-001 -2.029888e-001 1.540304e-002 4.787562e-003 1.534212e-002 4.718772e-003 6.301739e-001 -2.078189e-001
5855000000 6.168330e-001 -2.031104e-001 1.530698e-002 4.840732e-003 1.550979e-002 4.916851e-003 6.295830e-001 -2.079040e-001
5892187500 6.160820e-001 -2.031276e-001 1.532564e-002 4.780142e-003 1.541391e-002 4.789228e-003 6.288737e-001 -2.081934e-001
5929375000 6.154435e-001 -2.034574e-001 1.528135e-002 4.732410e-003 1.541299e-002 4.806333e-003 6.283138e-001 -2.080452e-001
5966562500 6.148635e-001 -2.031671e-001 1.536643e-002 4.863266e-003 1.526097e-002 4.800917e-003 6.276689e-001 -2.079377e-001
6003750000 6.142690e-001 -2.032543e-001 1.539496e-002 4.854407e-003 1.523950e-002 4.915255e-003 6.268174e-001 -2.082147e-001
6040937500 6.139044e-001 -2.036096e-001 1.536130e-002 4.843916e-003 1.518285e-002 4.826571e-003 6.264040e-001 -2.082442e-001
6078125000 6.133482e-001 -2.041266e-001 1.535786e-002 4.891064e-003 1.535799e-002 4.895256e-003 6.259851e-001 -2.085724e-001
6115312500 6.128503e-001 -2.041440e-001 1.544245e-002 4.890846e-003 1.538834e-002 4.942079e-003 6.252336e-001 -2.091304e-001
6152500000 6.123273e-001 -2.043584e-001 1.533567e-002 4.897581e-003 1.529654e-002 4.878000e-003 6.249152e-001 -2.092803e-001
6189687500 6.114218e-001 -2.044372e-001 1.536280e-002 4.940938e-003 1.536489e-002 4.895316e-003 6.240813e-001 -2.094447e-001
6226875000 6.106384e-001 -2.045963e-001 1.531242e-002 4.983241e-003 1.528388e-002 5.050297e-003 6.233544e-001 -2.094301e-001
6264062500 6.103482e-001 -2.048024e-001 1.529114e-002 5.074886e-003 1.528799e-002 4.970818e-003 6.228052e-001 -2.098524e-001
6301250000 6.093360e-001 -2.049761e-001 1.534067e-002 5.025713e-003 1.536129e-002 5.016977e-003 6.221864e-001 -2.100095e-001
6338437500 6.086834e-001 -2.052380e-001 1.539536e-002 4.974175e-003 1.531210e-002 5.027117e-003 6.214479e-001 -2.102132e-001
6375625000 6.079768e-001 -2.049457e-001 1.534567e-002 5.034890e-003 1.524874e-002 4.962296e-003 6.206807e-001 -2.102752e-001
6412812500 6.070555e-001 -2.052711e-001 1.532260e-002 5.109217e-003 1.534552e-002 5.146432e-003 6.202168e-001 -2.100834e-001
6450000000 6.067753e-001 -2.052956e-001 1.528721e-002 5.022361e-003 1.525083e-002 5.104229e-003 6.192848e-001 -2.105112e-001
6487187500 6.061072e-001 -2.054257e-001 1.528856e-002 5.083044e-003 1.534981e-002 5.049866e-003 6.186495e-001 -2.101705e-001
6524375000 6.055935e-001 -2.054724e-001 1.538045e-002 5.043531e-003 1.527751e-002 5.109497e-003 6.180251e-001 -2.103358e-001
6561562500 6.051701e-001 -2.056858e-001 1.542198e-002 5.089562e-003 1.534232e-002 5.092823e-003 6.171318e-001 -2.105688e-001
6598750000 6.048458e-001 -2.056518e-001 1.525775e-002 5.132140e-003 1.532057e-002 5.179723e-003 6.168669e-001 -2.105595e-001
6635937500 6.043764e-001 -2.058839e-001 1.541149e-002 5.250066e-003 1.527963e-002 5.148995e-003 6.163316e-001 -2.109503e-001
6673125000 6.036217e-001 -2.063825e-001 1.535023e-002 5.188844e-003 1.531904e-002 5.183212e-003 6.158605e-001 -2.113696e-001
6710312500 6.029580e-001 -2.065767e-001 1.531053e-002 5.226112e-003 1.524403e-002 5.276831e-003 6.150468e-001 -2.119609e-001
6747500000 6.023437e-001 -2.066799e-001 1.527148e-002 5.164813e-003 1.534197e-002 5.250269e-003 6.143933e-001 -2.121527e-001
6784687500 6.016812e-001 -2.066728e-001 1.531230e-002 5.232024e-003 1.519466e-002 5.135702e-003 6.137684e-001 -2.125381e-001
6821875000 6.010013e-001 -2.069625e-001 1.517058e-002 5.373651e-003 1.517482e-002 5.371633e-003 6.133376e-001 -2.128300e-001
6859062500 6.006073e-001 -2.071898e-001 1.529387e-002 5.266882e-003 1.525412e-002 5.280195e-003 6.125412e-001 -2.128624e-001
6896250000 5.996805e-001 -2.071320e-001 1.528186e-002 5.307486e-003 1.519096e-002 5.304430e-003 6.118406e-001 -2.130718e-001
6933437500 5.994168e-001 -2.072162e-001 1.533127e-002 5.418849e-003 1.519768e-002 5.298874e-003 6.113903e-001 -2.131067e-001
6970625000 5.986299e-001 -2.074931e-001 1.522694e-002 5.488347e-003 1.516906e-002 5.417448e-003 6.106344e-001 -2.132416e-001
7007812500 5.981053e-001 -2.075154e-001 1.534022e-002 5.475177e-003 1.522205e-002 5.446544e-003 6.103719e-001 -2.132036e-001
7045000000 5.976447e-001 -2.074945e-001 1.529151e-002 5.425636e-003 1.519268e-002 5.434980e-003 6.095008e-001 -2.136016e-001
7082187500 5.968854e-001 -2.072471e-001 1.515596e-002 5.421649e-003 1.524222e-002 5.462558e-003 6.089165e-001 -2.136229e-001
7119375000 5.964096e-001 -2.076036e-001 1.522512e-002 5.598214e-003 1.534168e-002 5.535588e-003 6.084775e-001 -2.135291e-001
7156562500 5.962282e-001 -2.076468e-001 1.523860e-002 5.617402e-003 1.523184e-002 5.560234e-003 6.079332e-001 -2.133722e-001
7193750000 5.957909e-001 -2.076528e-001 1.521790e-002 5.499450e-003 1.526699e-002 5.450110e-003 6.076867e-001 -2.136303e-001
7230937500 5.956472e-001 -2.080363e-001 1.519894e-002 5.604724e-003 1.520100e-002 5.510315e-003 6.074244e-001 -2.140273e-001
7268125000 5.953071e-001 -2.088067e-001 1.533730e-002 5.570584e-003 1.516836e-002 5.616089e-003 6.067784e-001 -2.144003e-001
7305312500 5.943635e-001 -2.087616e-001 1.528266e-002 5.718711e-003 1.531229e-002 5.638909e-003 6.060050e-001 -2.148277e-001
7342500000 5.938281e-001 -2.091409e-001 1.525960e-002 5.712746e-003 1.516280e-002 5.589876e-003 6.054001e-001 -2.152322e-001
7379687500 5.929287e-001 -2.089677e-001 1.524789e-002 5.652855e-003 1.516298e-002 5.678874e-003 6.047106e-001 -2.151709e-001
7416875000 5.926138e-001 -2.094473e-001 1.522423e-002 5.601169e-003 1.524221e-002 5.566639e-003 6.040325e-001 -2.153443e-001
7454062500 5.921431e-001 -2.092131e-001 1.524044e-002 5.699684e-003 1.514811e-002 5.684268e-003 6.033964e-001 -2.154687e-001
7491250000 5.915743e-001 -2.093026e-001 1.521109e-002 5.728778e-003 1.513910e-002 5.698288e-003 6.028208e-001 -2.153550e-001
7528437500 5.911185e-001 -2.092789e-001 1.517969e-002 5.686607e-003 1.501468e-002 5.797396e-003 6.022664e-001 -2.156305e-001
7565625000 5.903451e-001 -2.091676e-001 1.503736e-002 5.798575e-003 1.508257e-002 5.846045e-003 6.020612e-001 -2.159130e-001
7602812500 5.900798e-001 -2.092921e-001 1.519483e-002 5.826623e-003 1.513956e-002 5.869953e-003 6.014506e-001 -2.157898e-001
7640000000 5.895611e-001 -2.093054e-001 1.512877e-002 5.816758e-003 1.499267e-002 5.817151e-003 6.011691e-001 -2.159167e-001
7677187500 5.892476e-001 -2.093217e-001 1.509501e-002 5.978317e-003 1.515197e-002 5.827656e-003 6.005046e-001 -2.159185e-001
7714375000 5.890781e-001 -2.092212e-001 1.509328e-002 5.878664e-003 1.509809e-002 5.926655e-003 6.003486e-001 -2.158939e-001
7751562500 5.888693e-001 -2.093439e-001 1.509861e-002 5.970232e-003 1.499635e-002 5.948199e-003 5.998687e-001 -2.161248e-001
7788750000 5.886990e-001 -2.098482e-001 1.510259e-002 6.039570e-003 1.511755e-002 6.103423e-003 5.998076e-001 -2.163836e-001
7825937500 5.883820e-001 -2.100904e-001 1.514606e-002 6.091828e-003 1.508562e-002 6.060649e-003 5.994623e-001 -2.164594e-001
7863125000 5.879040e-001 -2.103215e-001 1.507361e-002 6.137818e-003 1.498425e-002 5.985904e-003 5.993323e-001 -2.170889e-001
7900312500 5.876566e-001 -2.108784e-001 1.511422e-002 6.123235e-003 1.509720e-002 6.102675e-003 5.988722e-001 -2.174816e-001
7937500000 5.867828e-001 -2.106459e-001 1.504054e-002 6.116424e-003 1.504955e-002 6.142429e-003 5.983859e-001 -2.178117e-001
