!Correction: S11(Full 2 Port(1,2)) 
!S21(Full 2 Port(1,2)) 
!S12(Full 2 Port(1,2)) 
!S22(Full 2 Port(1,2)) 
!S2P File: Measurements: S11, S21, S12, S22:
# Hz S  RI   R 50
2173437500 -9.970176e-001 3.125912e-002 1.082267e-003 5.083199e-003 1.216800e-003 5.061829e-003 -9.953526e-001 3.480823e-002
2210625000 -9.971835e-001 3.149414e-002 1.056708e-003 5.170098e-003 1.139060e-003 5.196431e-003 -9.954615e-001 3.527822e-002
2247812500 -9.970144e-001 3.213644e-002 1.150027e-003 5.249504e-003 1.139012e-003 5.217050e-003 -9.954044e-001 3.624319e-002
2285000000 -9.967579e-001 3.258015e-002 1.146101e-003 5.348374e-003 1.231111e-003 5.397941e-003 -9.952439e-001 3.666339e-002
2322187500 -9.969191e-001 3.319418e-002 1.270693e-003 5.484415e-003 1.154205e-003 5.341288e-003 -9.951831e-001 3.726273e-002
2359375000 -9.969881e-001 3.384312e-002 1.151481e-003 5.465700e-003 1.238135e-003 5.459228e-003 -9.949830e-001 3.741873e-002
2396562500 -9.969108e-001 3.430738e-002 1.161335e-003 5.479524e-003 1.116682e-003 5.470301e-003 -9.950258e-001 3.817085e-002
2433750000 -9.965265e-001 3.475684e-002 1.211472e-003 5.642134e-003 1.241627e-003 5.524937e-003 -9.953568e-001 3.890196e-002
2470937500 -9.967996e-001 3.531554e-002 1.211956e-003 5.656757e-003 1.233852e-003 5.804927e-003 -9.949835e-001 4.012500e-002
2508125000 -9.966893e-001 3.605013e-002 1.230323e-003 5.911694e-003 1.252929e-003 5.762402e-003 -9.948614e-001 3.977045e-002
2545312500 -9.967458e-001 3.620564e-002 1.231122e-003 5.839372e-003 1.172004e-003 5.832490e-003 -9.950507e-001 4.107624e-002
2582500000 -9.965348e-001 3.686427e-002 1.295315e-003 5.998619e-003 1.189372e-003 6.023150e-003 -9.949367e-001 4.136140e-002
2619687500 -9.970177e-001 3.765803e-002 1.292536e-003 5.981965e-003 1.350277e-003 5.963739e-003 -9.949133e-001 4.241304e-002
2656875000 -9.963382e-001 3.776440e-002 1.280891e-003 6.172218e-003 1.278074e-003 6.044641e-003 -9.950153e-001 4.289020e-002
2694062500 -9.970454e-001 3.851964e-002 1.275771e-003 6.094695e-003 1.209075e-003 6.160525e-003 -9.947495e-001 4.284848e-002
2731250000 -9.964933e-001 3.902290e-002 1.309347e-003 6.278581e-003 1.277253e-003 6.299335e-003 -9.947087e-001 4.384315e-002
2768437500 -9.963005e-001 3.941639e-002 1.285487e-003 6.333079e-003 1.190240e-003 6.384064e-003 -9.950275e-001 4.446036e-002
2805625000 -9.964944e-001 4.009920e-002 1.328361e-003 6.407210e-003 1.311925e-003 6.416490e-003 -9.944130e-001 4.488217e-002
2842812500 -9.966220e-001 4.070164e-002 1.330336e-003 6.616963e-003 1.378991e-003 6.432514e-003 -9.943109e-001 4.547928e-002
2880000000 -9.962391e-001 4.094936e-002 1.323644e-003 6.623199e-003 1.238732e-003 6.615417e-003 -9.943979e-001 4.614428e-002
2917187500 -9.963573e-001 4.180882e-002 1.486596e-003 6.603897e-003 1.290436e-003 6.735744e-003 -9.941747e-001 4.722136e-002
2954375000 -9.961137e-001 4.234352e-002 1.389381e-003 6.712615e-003 1.283123e-003 6.802334e-003 -9.941580e-001 4.766955e-002
2991562500 -9.962594e-001 4.292247e-002 1.311926e-003 6.896998e-003 1.362052e-003 6.822799e-003 -9.941571e-001 4.826615e-002
3028750000 -9.962664e-001 4.324691e-002 1.407360e-003 6.913397e-003 1.330354e-003 6.828052e-003 -9.941841e-001 4.906768e-002
3065937500 -9.962262e-001 4.412761e-002 1.430449e-003 6.893295e-003 1.454341e-003 7.046356e-003 -9.941884e-001 4.938847e-002
3103125000 -9.960521e-001 4.410346e-002 1.492608e-003 7.049439e-003 1.371975e-003 7.099131e-003 -9.938278e-001 4.961006e-002
3140312500 -9.959971e-001 4.465837e-002 1.479644e-003 7.200111e-003 1.493723e-003 7.012198e-003 -9.934836e-001 5.020411e-002
3177500000 -9.955404e-001 4.548665e-002 1.355332e-003 7.230059e-003 1.386362e-003 7.123757e-003 -9.939346e-001 5.103257e-002
3214687500 -9.959986e-001 4.563978e-002 1.417801e-003 7.316745e-003 1.465804e-003 7.276422e-003 -9.934487e-001 5.137599e-002
3251875000 -9.956871e-001 4.723877e-002 1.397927e-003 7.382712e-003 1.465926e-003 7.219646e-003 -9.937455e-001 5.200212e-002
3289062500 -9.953265e-001 4.739962e-002 1.406104e-003 7.346818e-003 1.400345e-003 7.409700e-003 -9.936346e-001 5.271858e-002
3326250000 -9.959238e-001 4.696039e-002 1.432849e-003 7.509058e-003 1.426065e-003 7.475026e-003 -9.938374e-001 5.271983e-002
3363437500 -9.960167e-001 4.744291e-002 1.488813e-003 7.626500e-003 1.363337e-003 7.569930e-003 -9.935088e-001 5.393541e-002
3400625000 -9.957010e-001 4.851297e-002 1.488159e-003 7.676902e-003 1.510043e-003 7.745889e-003 -9.936680e-001 5.427982e-002
3437812500 -9.954692e-001 4.881518e-002 1.541063e-003 7.806210e-003 1.415079e-003 7.754928e-003 -9.935379e-001 5.505590e-002
3475000000 -9.950444e-001 5.011261e-002 1.502874e-003 7.871740e-003 1.551865e-003 7.937271e-003 -9.936485e-001 5.583243e-002
3512187500 -9.953185e-001 5.003821e-002 1.515772e-003 7.946210e-003 1.541503e-003 7.966121e-003 -9.932315e-001 5.608830e-002
3549375000 -9.956073e-001 5.001859e-002 1.514657e-003 8.039938e-003 1.505327e-003 8.076110e-003 -9.931584e-001 5.725843e-002
3586562500 -9.956650e-001 5.091986e-002 1.560197e-003 8.070017e-003 1.511101e-003 7.992702e-003 -9.931176e-001 5.738650e-002
3623750000 -9.949806e-001 5.132618e-002 1.679365e-003 8.128374e-003 1.588389e-003 8.163055e-003 -9.935362e-001 5.798811e-002
3660937500 -9.952198e-001 5.145902e-002 1.604604e-003 8.223683e-003 1.661039e-003 8.126869e-003 -9.929421e-001 5.824091e-002
3698125000 -9.951215e-001 5.280213e-002 1.612991e-003 8.293509e-003 1.639133e-003 8.290687e-003 -9.931535e-001 5.878728e-002
3735312500 -9.953405e-001 5.363652e-002 1.641534e-003 8.411387e-003 1.666424e-003 8.336236e-003 -9.929609e-001 5.981582e-002
3772500000 -9.952655e-001 5.338729e-002 1.593995e-003 8.573982e-003 1.576329e-003 8.501166e-003 -9.928434e-001 5.985122e-002
3809687500 -9.947774e-001 5.431279e-002 1.620291e-003 8.623974e-003 1.629209e-003 8.632398e-003 -9.928302e-001 6.067080e-002
3846875000 -9.950889e-001 5.420216e-002 1.742735e-003 8.646826e-003 1.655922e-003 8.755519e-003 -9.929379e-001 6.098971e-002
3884062500 -9.949788e-001 5.510041e-002 1.642522e-003 8.769150e-003 1.700797e-003 8.796940e-003 -9.929547e-001 6.160245e-002
3921250000 -9.946797e-001 5.583206e-002 1.602033e-003 8.799784e-003 1.668086e-003 8.824687e-003 -9.925467e-001 6.194227e-002
3958437500 -9.952141e-001 5.689381e-002 1.632118e-003 8.814537e-003 1.625949e-003 8.884913e-003 -9.929981e-001 6.306154e-002
3995625000 -9.946116e-001 5.718827e-002 1.678428e-003 8.927626e-003 1.687644e-003 8.918835e-003 -9.926431e-001 6.342386e-002
4032812500 -9.948502e-001 5.767642e-002 1.796640e-003 9.018322e-003 1.741625e-003 9.146379e-003 -9.929371e-001 6.414384e-002
4070000000 -9.946303e-001 5.757055e-002 1.847041e-003 9.086104e-003 1.712737e-003 9.235555e-003 -9.926877e-001 6.504788e-002
4107187500 -9.947701e-001 5.732762e-002 1.667142e-003 9.230633e-003 1.716746e-003 9.257419e-003 -9.924432e-001 6.517073e-002
4144375000 -9.943827e-001 5.854388e-002 1.693849e-003 9.171518e-003 1.721667e-003 9.217129e-003 -9.921943e-001 6.594526e-002
4181562500 -9.942949e-001 5.937226e-002 1.666620e-003 9.312658e-003 1.821512e-003 9.355644e-003 -9.923046e-001 6.634429e-002
4218750000 -9.944366e-001 5.984138e-002 1.872822e-003 9.503614e-003 1.812635e-003 9.436147e-003 -9.921633e-001 6.736067e-002
4255937500 -9.949824e-001 5.978534e-002 1.703934e-003 9.461860e-003 1.878121e-003 9.451121e-003 -9.922603e-001 6.745502e-002
4293125000 -9.939577e-001 6.068600e-002 1.868762e-003 9.571420e-003 1.905604e-003 9.532937e-003 -9.920933e-001 6.850448e-002
4330312500 -9.944807e-001 6.138722e-002 1.887799e-003 9.680203e-003 1.742861e-003 9.705126e-003 -9.920697e-001 6.870216e-002
4367500000 -9.948766e-001 6.213323e-002 1.865817e-003 9.735395e-003 1.866743e-003 9.754309e-003 -9.916691e-001 6.957399e-002
4404687500 -9.943168e-001 6.225398e-002 2.035328e-003 9.820304e-003 1.941532e-003 9.787562e-003 -9.918479e-001 7.012293e-002
4441875000 -9.945080e-001 6.306697e-002 1.915911e-003 9.888661e-003 1.890366e-003 9.898368e-003 -9.917743e-001 7.103010e-002
4479062500 -9.941948e-001 6.347137e-002 1.880771e-003 9.846338e-003 1.896997e-003 9.932212e-003 -9.918404e-001 7.128724e-002
4516250000 -9.947398e-001 6.351823e-002 1.906699e-003 1.005094e-002 1.804371e-003 1.007030e-002 -9.915266e-001 7.212073e-002
4553437500 -9.935833e-001 6.441537e-002 2.013105e-003 1.017982e-002 1.843592e-003 1.010747e-002 -9.917456e-001 7.242154e-002
4590625000 -9.939885e-001 6.476413e-002 2.083487e-003 1.016605e-002 1.910173e-003 1.027890e-002 -9.916679e-001 7.319756e-002
4627812500 -9.938799e-001 6.576508e-002 1.943073e-003 1.023762e-002 1.903815e-003 1.022017e-002 -9.912517e-001 7.354695e-002
4665000000 -9.934894e-001 6.602200e-002 1.955883e-003 1.030339e-002 1.872530e-003 1.022623e-002 -9.911932e-001 7.407703e-002
4702187500 -9.931462e-001 6.670164e-002 2.038366e-003 1.048018e-002 2.063410e-003 1.031113e-002 -9.914110e-001 7.469263e-002
4739375000 -9.935561e-001 6.699321e-002 1.877147e-003 1.030781e-002 1.874305e-003 1.039139e-002 -9.910764e-001 7.561906e-002
4776562500 -9.937367e-001 6.807609e-002 1.922402e-003 1.054797e-002 1.927095e-003 1.048656e-002 -9.912367e-001 7.581385e-002
4813750000 -9.933781e-001 6.833118e-002 1.992514e-003 1.036207e-002 1.915942e-003 1.064145e-002 -9.910970e-001 7.667591e-002
4850937500 -9.939221e-001 6.865991e-002 1.980144e-003 1.071247e-002 2.101137e-003 1.052403e-002 -9.907630e-001 7.730288e-002
4888125000 -9.928878e-001 6.943630e-002 1.935952e-003 1.079284e-002 2.178208e-003 1.076330e-002 -9.910096e-001 7.756644e-002
4925312500 -9.936424e-001 6.978060e-002 1.950348e-003 1.077265e-002 1.982526e-003 1.081809e-002 -9.908254e-001 7.860308e-002
4962500000 -9.938090e-001 7.059902e-002 2.084033e-003 1.075702e-002 2.050191e-003 1.088336e-002 -9.906746e-001 7.923109e-002
4999687500 -9.934033e-001 7.096919e-002 1.868860e-003 1.098436e-002 2.080660e-003 1.099167e-002 -9.904872e-001 7.972349e-002
5036875000 -9.936085e-001 7.175864e-002 2.068080e-003 1.095917e-002 1.949258e-003 1.100670e-002 -9.902681e-001 8.015433e-002
5074062500 -9.930774e-001 7.127570e-002 2.122535e-003 1.127717e-002 2.271917e-003 1.124367e-002 -9.902111e-001 8.069442e-002
5111250000 -9.935927e-001 7.262433e-002 2.205003e-003 1.117591e-002 2.045175e-003 1.112063e-002 -9.900941e-001 8.132976e-002
5148437500 -9.926375e-001 7.283829e-002 2.177955e-003 1.127288e-002 2.109344e-003 1.138439e-002 -9.900923e-001 8.199903e-002
5185625000 -9.928831e-001 7.318252e-002 2.093682e-003 1.142989e-002 2.123524e-003 1.155048e-002 -9.897854e-001 8.259434e-002
5222812500 -9.930077e-001 7.365960e-002 2.111572e-003 1.136181e-002 2.195013e-003 1.147842e-002 -9.896894e-001 8.287782e-002
5260000000 -9.925844e-001 7.432859e-002 2.228751e-003 1.159553e-002 2.151909e-003 1.148252e-002 -9.894754e-001 8.349551e-002
5297187500 -9.930932e-001 7.501722e-002 2.133800e-003 1.161990e-002 2.021720e-003 1.165553e-002 -9.894277e-001 8.413341e-002
5334375000 -9.923462e-001 7.613071e-002 2.202267e-003 1.173924e-002 2.194504e-003 1.167260e-002 -9.899355e-001 8.446094e-002
5371562500 -9.926187e-001 7.582747e-002 2.083268e-003 1.164945e-002 2.169466e-003 1.175963e-002 -9.895374e-001 8.509394e-002
5408750000 -9.921567e-001 7.685710e-002 2.211540e-003 1.179908e-002 2.210066e-003 1.176360e-002 -9.894627e-001 8.605839e-002
5445937500 -9.924741e-001 7.700595e-002 2.256869e-003 1.202558e-002 2.245133e-003 1.189387e-002 -9.894193e-001 8.669981e-002
5483125000 -9.919833e-001 7.744285e-002 2.112403e-003 1.201204e-002 2.105471e-003 1.202166e-002 -9.898962e-001 8.679210e-002
5520312500 -9.922078e-001 7.830597e-002 2.253329e-003 1.200354e-002 2.182352e-003 1.210509e-002 -9.894462e-001 8.750753e-002
5557500000 -9.919652e-001 7.930587e-002 2.201058e-003 1.212049e-002 2.270694e-003 1.199977e-002 -9.893287e-001 8.851207e-002
5594687500 -9.922349e-001 7.912893e-002 2.197583e-003 1.222899e-002 2.248720e-003 1.217365e-002 -9.893295e-001 8.875982e-002
5631875000 -9.919304e-001 7.971665e-002 2.324492e-003 1.242390e-002 2.455332e-003 1.220863e-002 -9.890328e-001 8.970100e-002
5669062500 -9.920496e-001 8.031920e-002 2.277281e-003 1.226832e-002 2.230819e-003 1.222021e-002 -9.891437e-001 9.003232e-002
5706250000 -9.917339e-001 8.049843e-002 2.358272e-003 1.243261e-002 2.171922e-003 1.226614e-002 -9.889918e-001 9.029471e-002
5743437500 -9.917471e-001 8.143453e-002 2.223962e-003 1.250154e-002 2.328435e-003 1.244170e-002 -9.887851e-001 9.093686e-002
5780625000 -9.914833e-001 8.214522e-002 2.303497e-003 1.243733e-002 2.295003e-003 1.257604e-002 -9.888868e-001 9.124428e-002
5817812500 -9.915251e-001 8.231755e-002 2.274016e-003 1.261108e-002 2.252335e-003 1.260653e-002 -9.886295e-001 9.222621e-002
5855000000 -9.917488e-001 8.297206e-002 2.320438e-003 1.257443e-002 2.318507e-003 1.265732e-002 -9.882160e-001 9.270314e-002
5892187500 -9.914831e-001 8.360346e-002 2.236339e-003 1.272514e-002 2.257884e-003 1.280541e-002 -9.884267e-001 9.339511e-002
5929375000 -9.915701e-001 8.407053e-002 2.270893e-003 1.285646e-002 2.278004e-003 1.285151e-002 -9.881244e-001 9.409204e-002
5966562500 -9.909935e-001 8.472519e-002 2.351050e-003 1.286064e-002 2.352376e-003 1.287346e-002 -9.880982e-001 9.477385e-002
6003750000 -9.911041e-001 8.498819e-002 2.315664e-003 1.298043e-002 2.347443e-003 1.301796e-002 -9.878666e-001 9.521464e-002
6040937500 -9.910337e-001 8.525392e-002 2.310365e-003 1.298060e-002 2.423309e-003 1.313444e-002 -9.878039e-001 9.567015e-002
6078125000 -9.909156e-001 8.638009e-002 2.370940e-003 1.315551e-002 2.283517e-003 1.316604e-002 -9.874052e-001 9.642827e-002
6115312500 -9.910359e-001 8.650924e-002 2.437461e-003 1.313027e-002 2.375788e-003 1.308360e-002 -9.872908e-001 9.713554e-002
6152500000 -9.905133e-001 8.722572e-002 2.213347e-003 1.333033e-002 2.424730e-003 1.329271e-002 -9.872277e-001 9.722211e-002
6189687500 -9.904119e-001 8.754342e-002 2.341686e-003 1.341327e-002 2.391115e-003 1.331677e-002 -9.871459e-001 9.810764e-002
6226875000 -9.903054e-001 8.840442e-002 2.418344e-003 1.340113e-002 2.364782e-003 1.336567e-002 -9.868382e-001 9.852084e-002
6264062500 -9.908211e-001 8.849451e-002 2.368990e-003 1.346499e-002 2.468226e-003 1.354228e-002 -9.869576e-001 9.934404e-002
6301250000 -9.903561e-001 8.915123e-002 2.378320e-003 1.350410e-002 2.304466e-003 1.354401e-002 -9.866892e-001 9.983765e-002
6338437500 -9.904279e-001 8.975782e-002 2.302936e-003 1.366073e-002 2.382998e-003 1.362621e-002 -9.866617e-001 1.007117e-001
6375625000 -9.900391e-001 9.019070e-002 2.383686e-003 1.369836e-002 2.301913e-003 1.365905e-002 -9.865394e-001 1.013915e-001
6412812500 -9.901085e-001 9.106916e-002 2.312535e-003 1.377804e-002 2.451686e-003 1.374864e-002 -9.862415e-001 1.020714e-001
6450000000 -9.899977e-001 9.144171e-002 2.423441e-003 1.391956e-002 2.395336e-003 1.386917e-002 -9.865938e-001 1.027269e-001
6487187500 -9.897442e-001 9.173695e-002 2.385671e-003 1.389079e-002 2.381844e-003 1.399158e-002 -9.862104e-001 1.031828e-001
6524375000 -9.896958e-001 9.209687e-002 2.400220e-003 1.399719e-002 2.368307e-003 1.403463e-002 -9.862931e-001 1.038265e-001
6561562500 -9.897490e-001 9.313311e-002 2.456705e-003 1.413724e-002 2.298345e-003 1.417549e-002 -9.859474e-001 1.041466e-001
6598750000 -9.894670e-001 9.310217e-002 2.420434e-003 1.410291e-002 2.394523e-003 1.407519e-002 -9.861577e-001 1.049611e-001
6635937500 -9.891312e-001 9.405091e-002 2.388615e-003 1.421522e-002 2.425224e-003 1.436268e-002 -9.855700e-001 1.051935e-001
6673125000 -9.886752e-001 9.418143e-002 2.256091e-003 1.431569e-002 2.339605e-003 1.427664e-002 -9.855556e-001 1.060656e-001
6710312500 -9.891105e-001 9.495968e-002 2.327878e-003 1.444629e-002 2.340294e-003 1.436630e-002 -9.854431e-001 1.065649e-001
6747500000 -9.889714e-001 9.546872e-002 2.435164e-003 1.451125e-002 2.399321e-003 1.448184e-002 -9.851925e-001 1.070729e-001
6784687500 -9.884850e-001 9.599632e-002 2.335952e-003 1.459907e-002 2.387977e-003 1.451460e-002 -9.852762e-001 1.076250e-001
6821875000 -9.890366e-001 9.672185e-002 2.506109e-003 1.467812e-002 2.460035e-003 1.474205e-002 -9.848601e-001 1.078885e-001
6859062500 -9.885510e-001 9.694927e-002 2.283019e-003 1.478929e-002 2.384632e-003 1.462988e-002 -9.849887e-001 1.082718e-001
6896250000 -9.884773e-001 9.721996e-002 2.392024e-003 1.486173e-002 2.358107e-003 1.480369e-002 -9.845793e-001 1.093797e-001
6933437500 -9.884025e-001 9.776343e-002 2.301452e-003 1.482968e-002 2.368244e-003 1.489517e-002 -9.840472e-001 1.094425e-001
6970625000 -9.884872e-001 9.822415e-002 2.293113e-003 1.501744e-002 2.357349e-003 1.498562e-002 -9.845864e-001 1.103205e-001
7007812500 -9.880926e-001 9.882540e-002 2.329218e-003 1.514927e-002 2.386077e-003 1.504809e-002 -9.843640e-001 1.109336e-001
7045000000 -9.875777e-001 9.970837e-002 2.232492e-003 1.511512e-002 2.273545e-003 1.517678e-002 -9.840257e-001 1.111701e-001
7082187500 -9.874792e-001 9.986569e-002 2.360414e-003 1.523679e-002 2.389038e-003 1.519593e-002 -9.841087e-001 1.119121e-001
7119375000 -9.873963e-001 1.007070e-001 2.360062e-003 1.531568e-002 2.439598e-003 1.525965e-002 -9.837720e-001 1.126773e-001
7156562500 -9.878073e-001 1.009104e-001 2.312124e-003 1.548001e-002 2.322405e-003 1.546953e-002 -9.836779e-001 1.129053e-001
7193750000 -9.871919e-001 1.016152e-001 2.274020e-003 1.544642e-002 2.392183e-003 1.545572e-002 -9.833997e-001 1.136460e-001
7230937500 -9.874279e-001 1.021013e-001 2.272685e-003 1.568674e-002 2.200258e-003 1.562824e-002 -9.836284e-001 1.139468e-001
7268125000 -9.874011e-001 1.026032e-001 2.265746e-003 1.571022e-002 2.203830e-003 1.560702e-002 -9.832578e-001 1.146142e-001
7305312500 -9.871703e-001 1.026268e-001 2.326590e-003 1.581487e-002 2.328863e-003 1.577934e-002 -9.831259e-001 1.151081e-001
7342500000 -9.867688e-001 1.035239e-001 2.278732e-003 1.588903e-002 2.200170e-003 1.596964e-002 -9.830984e-001 1.157869e-001
7379687500 -9.866251e-001 1.038508e-001 2.351610e-003 1.593840e-002 2.275820e-003 1.589640e-002 -9.831552e-001 1.163259e-001
7416875000 -9.865619e-001 1.042322e-001 2.154974e-003 1.613946e-002 2.336970e-003 1.614218e-002 -9.827659e-001 1.170064e-001
7454062500 -9.866171e-001 1.046829e-001 2.277718e-003 1.617154e-002 2.249330e-003 1.610487e-002 -9.828625e-001 1.176545e-001
7491250000 -9.861083e-001 1.053167e-001 2.326403e-003 1.632450e-002 2.334374e-003 1.633825e-002 -9.826171e-001 1.179403e-001
7528437500 -9.863553e-001 1.058218e-001 2.312227e-003 1.648900e-002 2.346347e-003 1.630349e-002 -9.825228e-001 1.188849e-001
7565625000 -9.858136e-001 1.062675e-001 2.324064e-003 1.638473e-002 2.283619e-003 1.652210e-002 -9.823896e-001 1.192063e-001
7602812500 -9.860591e-001 1.069309e-001 2.398285e-003 1.669910e-002 2.231028e-003 1.681631e-002 -9.820901e-001 1.196234e-001
7640000000 -9.857742e-001 1.072335e-001 2.284950e-003 1.673205e-002 2.332041e-003 1.661551e-002 -9.820563e-001 1.202296e-001
7677187500 -9.857185e-001 1.075229e-001 2.271935e-003 1.691216e-002 2.183610e-003 1.682125e-002 -9.817823e-001 1.204991e-001
7714375000 -9.858003e-001 1.083191e-001 2.205956e-003 1.693319e-002 2.367384e-003 1.690726e-002 -9.816748e-001 1.211419e-001
7751562500 -9.854568e-001 1.089263e-001 2.366198e-003 1.691321e-002 2.313613e-003 1.697096e-002 -9.814757e-001 1.217226e-001
7788750000 -9.853903e-001 1.090435e-001 2.333902e-003 1.725854e-002 2.364959e-003 1.713810e-002 -9.810065e-001 1.217807e-001
7825937500 -9.847305e-001 1.096006e-001 2.221686e-003 1.728836e-002 2.214986e-003 1.726650e-002 -9.810702e-001 1.222961e-001
7863125000 -9.850483e-001 1.099135e-001 2.314746e-003 1.739497e-002 2.462542e-003 1.739405e-002 -9.810266e-001 1.228714e-001
7900312500 -9.849307e-001 1.102200e-001 2.222270e-003 1.752461e-002 2.346715e-003 1.747003e-002 -9.804021e-001 1.232967e-001
7937500000 -9.846762e-001 1.112777e-001 2.242766e-003 1.755085e-002 2.261149e-003 1.766195e-002 -9.804615e-001 1.238064e-001
7974687500 -9.842846e-001 1.110416e-001 2.356206e-003 1.779103e-002 2.467191e-003 1.763828e-002 -9.804186e-001 1.243356e-001
